<Qucs Dataset 0.0.20>
<indep time 291>
0.000000000000e+00
5.000000000000e-10
1.000000000000e-09
2.000000000000e-09
4.000000000000e-09
8.000000000000e-09
1.600000000000e-08
3.200000000000e-08
5.197041272770e-08
6.818734682634e-08
8.538698303757e-08
1.000000000000e-07
1.021516772398e-07
1.064550317193e-07
1.150617406783e-07
1.322751585964e-07
1.667019944325e-07
2.167019944325e-07
2.667019944325e-07
3.167019944325e-07
3.667019944325e-07
4.167019944325e-07
4.667019944325e-07
5.167019944325e-07
5.667019944325e-07
6.167019944325e-07
6.667019944325e-07
7.167019944325e-07
7.667019944325e-07
8.167019944325e-07
8.667019944325e-07
9.167019944325e-07
9.667019944325e-07
1.016701994432e-06
1.066701994432e-06
1.100000000000e-06
1.105000000000e-06
1.115000000000e-06
1.135000000000e-06
1.156694632648e-06
1.172139690788e-06
1.187844114572e-06
1.200000000000e-06
1.202272948854e-06
1.206818846563e-06
1.215910641980e-06
1.234094232815e-06
1.270461414484e-06
1.320461414484e-06
1.370461414484e-06
1.420461414484e-06
1.470461414484e-06
1.520461414484e-06
1.570461414484e-06
1.620461414484e-06
1.670461414484e-06
1.720461414484e-06
1.770461414484e-06
1.820461414484e-06
1.870461414484e-06
1.920461414484e-06
1.970461414484e-06
2.020461414484e-06
2.070461414484e-06
2.120461414484e-06
2.170461414484e-06
2.200000000000e-06
2.205000000000e-06
2.215000000000e-06
2.235000000000e-06
2.256658993707e-06
2.272277956520e-06
2.287410696724e-06
2.300000000000e-06
2.302320071386e-06
2.306960214159e-06
2.316240499705e-06
2.334801070795e-06
2.371922212977e-06
2.421922212977e-06
2.471922212977e-06
2.521922212977e-06
2.571922212977e-06
2.621922212977e-06
2.671922212977e-06
2.721922212977e-06
2.771922212977e-06
2.821922212977e-06
2.871922212977e-06
2.921922212977e-06
2.971922212977e-06
3.021922212977e-06
3.071922212977e-06
3.121922212977e-06
3.171922212977e-06
3.221922212977e-06
3.271922212977e-06
3.300000000000e-06
3.305000000000e-06
3.315000000000e-06
3.335000000000e-06
3.356694695177e-06
3.372139766030e-06
3.387844208232e-06
3.400000000000e-06
3.402272952926e-06
3.406818858777e-06
3.415910670479e-06
3.434094293883e-06
3.470461540692e-06
3.520461540692e-06
3.570461540692e-06
3.620461540692e-06
3.670461540692e-06
3.720461540692e-06
3.770461540692e-06
3.820461540692e-06
3.870461540692e-06
3.920461540692e-06
3.970461540692e-06
4.020461540692e-06
4.070461540692e-06
4.120461540692e-06
4.170461540692e-06
4.220461540692e-06
4.270461540692e-06
4.320461540692e-06
4.370461540692e-06
4.400000000000e-06
4.405000000000e-06
4.415000000000e-06
4.435000000000e-06
4.456658993708e-06
4.472277956522e-06
4.487410696725e-06
4.500000000000e-06
4.502320071386e-06
4.506960214159e-06
4.516240499705e-06
4.534801070795e-06
4.571922212977e-06
4.621922212977e-06
4.671922212977e-06
4.721922212977e-06
4.771922212977e-06
4.821922212977e-06
4.871922212977e-06
4.921922212977e-06
4.971922212977e-06
5.021922212977e-06
5.071922212977e-06
5.121922212977e-06
5.171922212977e-06
5.221922212977e-06
5.271922212977e-06
5.321922212977e-06
5.371922212977e-06
5.421922212977e-06
5.471922212977e-06
5.500000000000e-06
5.505000000000e-06
5.515000000000e-06
5.535000000000e-06
5.556694695177e-06
5.572139766030e-06
5.587844208232e-06
5.600000000000e-06
5.602272952926e-06
5.606818858777e-06
5.615910670479e-06
5.634094293883e-06
5.670461540692e-06
5.720461540692e-06
5.770461540692e-06
5.820461540692e-06
5.870461540692e-06
5.920461540692e-06
5.970461540692e-06
6.020461540692e-06
6.070461540692e-06
6.120461540692e-06
6.170461540692e-06
6.220461540692e-06
6.270461540692e-06
6.320461540692e-06
6.370461540692e-06
6.420461540692e-06
6.470461540692e-06
6.520461540692e-06
6.570461540692e-06
6.600000000000e-06
6.605000000000e-06
6.615000000000e-06
6.635000000000e-06
6.656658993708e-06
6.672277956522e-06
6.687410696725e-06
6.700000000000e-06
6.702320071386e-06
6.706960214159e-06
6.716240499705e-06
6.734801070795e-06
6.771922212977e-06
6.821922212977e-06
6.871922212977e-06
6.921922212977e-06
6.971922212977e-06
7.021922212977e-06
7.071922212977e-06
7.121922212977e-06
7.171922212977e-06
7.221922212977e-06
7.271922212977e-06
7.321922212977e-06
7.371922212977e-06
7.421922212977e-06
7.471922212977e-06
7.521922212977e-06
7.571922212977e-06
7.621922212977e-06
7.671922212977e-06
7.700000000000e-06
7.705000000000e-06
7.715000000000e-06
7.735000000000e-06
7.756694695177e-06
7.772139766030e-06
7.787844208232e-06
7.800000000000e-06
7.802272952926e-06
7.806818858777e-06
7.815910670479e-06
7.834094293883e-06
7.870461540692e-06
7.920461540692e-06
7.970461540692e-06
8.020461540692e-06
8.070461540692e-06
8.120461540692e-06
8.170461540692e-06
8.220461540692e-06
8.270461540692e-06
8.320461540692e-06
8.370461540692e-06
8.420461540692e-06
8.470461540692e-06
8.520461540692e-06
8.570461540692e-06
8.620461540692e-06
8.670461540692e-06
8.720461540692e-06
8.770461540692e-06
8.800000000000e-06
8.805000000000e-06
8.815000000000e-06
8.835000000000e-06
8.856658993708e-06
8.872277956522e-06
8.887410696725e-06
8.900000000000e-06
8.902320071386e-06
8.906960214159e-06
8.916240499705e-06
8.934801070795e-06
8.971922212977e-06
9.021922212977e-06
9.071922212977e-06
9.121922212977e-06
9.171922212977e-06
9.221922212977e-06
9.271922212977e-06
9.321922212977e-06
9.371922212977e-06
9.421922212977e-06
9.471922212977e-06
9.521922212977e-06
9.571922212977e-06
9.621922212977e-06
9.671922212977e-06
9.721922212977e-06
9.771922212977e-06
9.821922212977e-06
9.871922212977e-06
9.900000000000e-06
9.905000000000e-06
9.915000000000e-06
9.935000000000e-06
9.956694695177e-06
9.972139766030e-06
9.987844208232e-06
1.000000000000e-05
</indep>
<dep tran.v(pr1) time>
4.928946247113e+00
4.928603909026e+00
4.928113352629e+00
4.927109235345e+00
4.924996956981e+00
4.920302570303e+00
4.908438682385e+00
4.848497428574e+00
1.822200309709e+00
9.557171347862e-03
1.070479806373e-03
-2.722005447603e-04
-2.469073485588e-06
2.350705895278e-06
-2.398847027373e-06
2.445276392887e-06
-2.381809168318e-06
2.435193126946e-06
-2.373787397350e-06
2.427191088781e-06
-2.365791756189e-06
2.419208308249e-06
-2.357822719307e-06
2.411252088280e-06
-2.349880198225e-06
2.403322340371e-06
-2.341964104664e-06
2.395418976202e-06
-2.334074350886e-06
2.387541908609e-06
-2.326210849442e-06
2.379691049458e-06
-2.318373512343e-06
2.371866311945e-06
-2.310562252924e-06
2.362179958817e-06
-3.323070891478e-04
-3.757456504477e-04
4.506288434034e-02
4.606684729965e+00
4.876142252390e+00
4.912628391896e+00
4.930232886248e+00
4.928950481347e+00
4.928942010188e+00
4.928950418821e+00
4.928942031621e+00
4.928950408374e+00
4.928942037421e+00
4.928950403023e+00
4.928942042372e+00
4.928950397977e+00
4.928942047414e+00
4.928950392937e+00
4.928942052450e+00
4.928950387903e+00
4.928942057481e+00
4.928950382875e+00
4.928942062505e+00
4.928950377852e+00
4.928942067523e+00
4.928950372836e+00
4.928942072534e+00
4.928950367827e+00
4.928942077540e+00
4.928950362823e+00
4.928942084185e+00
4.923884514564e+00
4.910157109480e+00
4.821829686851e+00
4.480773795996e-01
-4.632416544206e-03
5.006405891162e-03
-3.687611169064e-03
-3.174324072913e-05
3.123329874520e-05
-3.090430819115e-05
3.081450089135e-05
-3.070252364202e-05
3.069382031394e-05
-3.059205308100e-05
3.059268407182e-05
-3.049013743205e-05
3.049098624336e-05
-3.038856178394e-05
3.038962681362e-05
-3.028732428432e-05
3.028860462267e-05
-3.018642380681e-05
3.018791854798e-05
-3.008585922924e-05
3.008756747142e-05
-2.998562943199e-05
2.998755027873e-05
-2.988573330054e-05
2.988786585877e-05
-2.978616972330e-05
2.975186321751e-05
-3.321838714284e-04
-3.758988062803e-04
4.506307941604e-02
4.606689110417e+00
4.876142680430e+00
4.912628498111e+00
4.930232908084e+00
4.928950481412e+00
4.928942010124e+00
4.928950418885e+00
4.928942031557e+00
4.928950408438e+00
4.928942037357e+00
4.928950403087e+00
4.928942042308e+00
4.928950398041e+00
4.928942047350e+00
4.928950393001e+00
4.928942052387e+00
4.928950387966e+00
4.928942057417e+00
4.928950382938e+00
4.928942062441e+00
4.928950377916e+00
4.928942067459e+00
4.928950372900e+00
4.928942072471e+00
4.928950367890e+00
4.928942077477e+00
4.928950362886e+00
4.928942084122e+00
4.923884514564e+00
4.910157109481e+00
4.821829686851e+00
4.480773795322e-01
-4.632416545493e-03
5.006405891671e-03
-3.687611169575e-03
-3.174324073341e-05
3.123329874961e-05
-3.090430819546e-05
3.081450089584e-05
-3.070252364629e-05
3.069382031838e-05
-3.059205308541e-05
3.059268407601e-05
-3.049013743622e-05
3.049098624752e-05
-3.038856178832e-05
3.038962681778e-05
-3.028732428847e-05
3.028860462682e-05
-3.018642381116e-05
3.018791855211e-05
-3.008585923315e-05
3.008756747575e-05
-2.998562943610e-05
2.998755028304e-05
-2.988573330484e-05
2.988786586307e-05
-2.978616972759e-05
2.975186322175e-05
-3.321838714282e-04
-3.758988062803e-04
4.506307941604e-02
4.606689110417e+00
4.876142680430e+00
4.912628498111e+00
4.930232908084e+00
4.928950481412e+00
4.928942010124e+00
4.928950418885e+00
4.928942031557e+00
4.928950408438e+00
4.928942037357e+00
4.928950403087e+00
4.928942042308e+00
4.928950398041e+00
4.928942047350e+00
4.928950393001e+00
4.928942052387e+00
4.928950387966e+00
4.928942057417e+00
4.928950382938e+00
4.928942062441e+00
4.928950377916e+00
4.928942067459e+00
4.928950372900e+00
4.928942072471e+00
4.928950367890e+00
4.928942077477e+00
4.928950362886e+00
4.928942084122e+00
4.923884514564e+00
4.910157109481e+00
4.821829686851e+00
4.480773795322e-01
-4.632416545493e-03
5.006405891671e-03
-3.687611169575e-03
-3.174324073341e-05
3.123329874961e-05
-3.090430819546e-05
3.081450089584e-05
-3.070252364629e-05
3.069382031838e-05
-3.059205308541e-05
3.059268407601e-05
-3.049013743622e-05
3.049098624752e-05
-3.038856178832e-05
3.038962681778e-05
-3.028732428847e-05
3.028860462682e-05
-3.018642381116e-05
3.018791855211e-05
-3.008585923315e-05
3.008756747575e-05
-2.998562943610e-05
2.998755028304e-05
-2.988573330484e-05
2.988786586307e-05
-2.978616972759e-05
2.975186322174e-05
-3.321838714285e-04
-3.758988062799e-04
4.506307941607e-02
4.606689110417e+00
4.876142680430e+00
4.912628498111e+00
4.930232908084e+00
4.928950481412e+00
4.928942010124e+00
4.928950418885e+00
4.928942031557e+00
4.928950408438e+00
4.928942037357e+00
4.928950403087e+00
4.928942042308e+00
4.928950398041e+00
4.928942047350e+00
4.928950393001e+00
4.928942052387e+00
4.928950387966e+00
4.928942057417e+00
4.928950382938e+00
4.928942062441e+00
4.928950377916e+00
4.928942067459e+00
4.928950372900e+00
4.928942072471e+00
4.928950367890e+00
4.928942077477e+00
4.928950362886e+00
4.928942084122e+00
4.923884514564e+00
4.910157109481e+00
4.821829686851e+00
4.480773795321e-01
-4.632416545493e-03
5.006405891672e-03
-3.687611169576e-03
-3.174324073342e-05
3.123329874962e-05
-3.090430819548e-05
3.081450089586e-05
-3.070252364631e-05
3.069382031839e-05
-3.059205308542e-05
3.059268407602e-05
-3.049013743623e-05
3.049098624754e-05
-3.038856178834e-05
3.038962681779e-05
-3.028732428849e-05
3.028860462683e-05
-3.018642381118e-05
3.018791855212e-05
-3.008585923317e-05
3.008756747576e-05
-2.998562943612e-05
2.998755028306e-05
-2.988573330486e-05
2.988786586309e-05
-2.978616972760e-05
2.975186322174e-05
-3.321838714282e-04
-3.758988062802e-04
4.506307941609e-02
4.606689110417e+00
4.876142680430e+00
4.912628498111e+00
4.930232908084e+00
</dep>
<dep tran.v(input) time>
0.000000000000e+00
2.498910420730e-02
4.998908435094e-02
9.998910037426e-02
1.999891147752e-01
3.999891565199e-01
7.999891988448e-01
1.599987791375e+00
2.598502561695e+00
3.409356885136e+00
4.269340316760e+00
4.999989119051e+00
5.000000006007e+00
4.999999994120e+00
5.000000005820e+00
4.999999994213e+00
5.000000005772e+00
4.999999994239e+00
5.000000005750e+00
4.999999994261e+00
5.000000005729e+00
4.999999994282e+00
5.000000005707e+00
4.999999994303e+00
5.000000005686e+00
4.999999994325e+00
5.000000005665e+00
4.999999994346e+00
5.000000005644e+00
4.999999994367e+00
5.000000005622e+00
4.999999994388e+00
5.000000005601e+00
4.999999994409e+00
5.000000005580e+00
4.999999994436e+00
4.750009981060e+00
4.250009577223e+00
3.250010268399e+00
2.165290768935e+00
1.393018008795e+00
6.078141260073e-01
1.920911413194e-06
-4.782540360368e-08
4.749908551918e-08
-4.733717926831e-08
4.725642946984e-08
-4.721610711039e-08
4.718679790836e-08
-4.715750824243e-08
4.712823541364e-08
-4.709898073885e-08
4.706974326146e-08
-4.704052391558e-08
4.701132174693e-08
-4.698213768732e-08
4.695297078479e-08
-4.692382196885e-08
4.689469028985e-08
-4.686557667508e-08
4.683648017713e-08
-4.680740172103e-08
4.677834036167e-08
-4.674929702186e-08
4.672027075867e-08
-4.669126249270e-08
4.664219896085e-08
2.499891051814e-01
7.499892260324e-01
1.749987649918e+00
2.832929688642e+00
3.613893705018e+00
4.370519923477e+00
4.999995076655e+00
5.000000087948e+00
4.999999913575e+00
5.000000085679e+00
4.999999914703e+00
5.000000085115e+00
4.999999915025e+00
5.000000084840e+00
4.999999915300e+00
5.000000084565e+00
4.999999915574e+00
5.000000084292e+00
4.999999915847e+00
5.000000084019e+00
4.999999916119e+00
5.000000083747e+00
4.999999916390e+00
5.000000083477e+00
4.999999916661e+00
5.000000083207e+00
4.999999916930e+00
5.000000082938e+00
4.999999917199e+00
5.000000082669e+00
4.999999917572e+00
4.750009980756e+00
4.250009577523e+00
3.250010268101e+00
2.165287642750e+00
1.393014246401e+00
6.078094432910e-01
1.920625673396e-06
-4.782616035197e-08
4.749983785636e-08
-4.733792941738e-08
4.725717852737e-08
-4.721685562271e-08
4.718754597188e-08
-4.715825585743e-08
4.712898258038e-08
-4.709972745761e-08
4.707048953253e-08
-4.704126973920e-08
4.701206712340e-08
-4.698288261692e-08
4.695371526776e-08
-4.692456600552e-08
4.689543388046e-08
-4.686631981992e-08
4.683722287643e-08
-4.680814397509e-08
4.677908217072e-08
-4.675003838616e-08
4.672101167851e-08
-4.669200296833e-08
4.664293847561e-08
2.499891051814e-01
7.499892260324e-01
1.749987649918e+00
2.832929688673e+00
3.613893705090e+00
4.370519923550e+00
4.999995076655e+00
5.000000087948e+00
4.999999913575e+00
5.000000085679e+00
4.999999914703e+00
5.000000085115e+00
4.999999915025e+00
5.000000084840e+00
4.999999915300e+00
5.000000084565e+00
4.999999915574e+00
5.000000084292e+00
4.999999915847e+00
5.000000084019e+00
4.999999916119e+00
5.000000083747e+00
4.999999916390e+00
5.000000083477e+00
4.999999916661e+00
5.000000083207e+00
4.999999916930e+00
5.000000082938e+00
4.999999917199e+00
5.000000082669e+00
4.999999917572e+00
4.750009980756e+00
4.250009577523e+00
3.250010268101e+00
2.165287642750e+00
1.393014246401e+00
6.078094432910e-01
1.920625673395e-06
-4.782616035203e-08
4.749983785639e-08
-4.733792941748e-08
4.725717852744e-08
-4.721685562280e-08
4.718754597197e-08
-4.715825585750e-08
4.712898258047e-08
-4.709972745769e-08
4.707048953262e-08
-4.704126973928e-08
4.701206712349e-08
-4.698288261700e-08
4.695371526784e-08
-4.692456600561e-08
4.689543388054e-08
-4.686631982000e-08
4.683722287652e-08
-4.680814397518e-08
4.677908217080e-08
-4.675003838624e-08
4.672101167860e-08
-4.669200296842e-08
4.664293847571e-08
2.499891051814e-01
7.499892260324e-01
1.749987649918e+00
2.832929688673e+00
3.613893705090e+00
4.370519923550e+00
4.999995076655e+00
5.000000087948e+00
4.999999913575e+00
5.000000085679e+00
4.999999914703e+00
5.000000085115e+00
4.999999915025e+00
5.000000084840e+00
4.999999915300e+00
5.000000084565e+00
4.999999915574e+00
5.000000084292e+00
4.999999915847e+00
5.000000084019e+00
4.999999916119e+00
5.000000083747e+00
4.999999916390e+00
5.000000083477e+00
4.999999916661e+00
5.000000083207e+00
4.999999916930e+00
5.000000082938e+00
4.999999917199e+00
5.000000082669e+00
4.999999917572e+00
4.750009980756e+00
4.250009577523e+00
3.250010268101e+00
2.165287642749e+00
1.393014246401e+00
6.078094432909e-01
1.920625645862e-06
-4.782616035468e-08
4.749983785896e-08
-4.733792942005e-08
4.725717853003e-08
-4.721685562536e-08
4.718754597454e-08
-4.715825586008e-08
4.712898258304e-08
-4.709972746027e-08
4.707048953519e-08
-4.704126974186e-08
4.701206712606e-08
-4.698288261958e-08
4.695371527042e-08
-4.692456600818e-08
4.689543388311e-08
-4.686631982257e-08
4.683722287909e-08
-4.680814397775e-08
4.677908217337e-08
-4.675003838881e-08
4.672101168117e-08
-4.669200297099e-08
4.664293847827e-08
2.499891051814e-01
7.499892260325e-01
1.749987649919e+00
2.832929688673e+00
3.613893705090e+00
4.370519923550e+00
4.999995076655e+00
5.000000087948e+00
4.999999913575e+00
5.000000085679e+00
4.999999914703e+00
5.000000085115e+00
4.999999915025e+00
5.000000084840e+00
4.999999915300e+00
5.000000084565e+00
4.999999915574e+00
5.000000084292e+00
4.999999915847e+00
5.000000084019e+00
4.999999916119e+00
5.000000083747e+00
4.999999916390e+00
5.000000083477e+00
4.999999916661e+00
5.000000083207e+00
4.999999916930e+00
5.000000082938e+00
4.999999917199e+00
5.000000082669e+00
4.999999917572e+00
4.750009980756e+00
4.250009577523e+00
3.250010268101e+00
2.165287642749e+00
1.393014246401e+00
6.078094432908e-01
1.920625645864e-06
</dep>
<dep tran.v(output) time>
4.928946247113e+00
4.928603909026e+00
4.928113352629e+00
4.927109235345e+00
4.924996956981e+00
4.920302570303e+00
4.908438682385e+00
4.848497428574e+00
1.822200309709e+00
9.557171347862e-03
1.070479806373e-03
-2.722005447603e-04
-2.469073485588e-06
2.350705895278e-06
-2.398847027373e-06
2.445276392887e-06
-2.381809168318e-06
2.435193126946e-06
-2.373787397350e-06
2.427191088781e-06
-2.365791756189e-06
2.419208308249e-06
-2.357822719307e-06
2.411252088280e-06
-2.349880198225e-06
2.403322340371e-06
-2.341964104664e-06
2.395418976202e-06
-2.334074350886e-06
2.387541908609e-06
-2.326210849442e-06
2.379691049458e-06
-2.318373512343e-06
2.371866311945e-06
-2.310562252924e-06
2.362179958817e-06
-3.323070891478e-04
-3.757456504477e-04
4.506288434034e-02
4.606684729965e+00
4.876142252390e+00
4.912628391896e+00
4.930232886248e+00
4.928950481347e+00
4.928942010188e+00
4.928950418821e+00
4.928942031621e+00
4.928950408374e+00
4.928942037421e+00
4.928950403023e+00
4.928942042372e+00
4.928950397977e+00
4.928942047414e+00
4.928950392937e+00
4.928942052450e+00
4.928950387903e+00
4.928942057481e+00
4.928950382875e+00
4.928942062505e+00
4.928950377852e+00
4.928942067523e+00
4.928950372836e+00
4.928942072534e+00
4.928950367827e+00
4.928942077540e+00
4.928950362823e+00
4.928942084185e+00
4.923884514564e+00
4.910157109480e+00
4.821829686851e+00
4.480773795996e-01
-4.632416544206e-03
5.006405891162e-03
-3.687611169064e-03
-3.174324072913e-05
3.123329874520e-05
-3.090430819115e-05
3.081450089135e-05
-3.070252364202e-05
3.069382031394e-05
-3.059205308100e-05
3.059268407182e-05
-3.049013743205e-05
3.049098624336e-05
-3.038856178394e-05
3.038962681362e-05
-3.028732428432e-05
3.028860462267e-05
-3.018642380681e-05
3.018791854798e-05
-3.008585922924e-05
3.008756747142e-05
-2.998562943199e-05
2.998755027873e-05
-2.988573330054e-05
2.988786585877e-05
-2.978616972330e-05
2.975186321751e-05
-3.321838714284e-04
-3.758988062803e-04
4.506307941604e-02
4.606689110417e+00
4.876142680430e+00
4.912628498111e+00
4.930232908084e+00
4.928950481412e+00
4.928942010124e+00
4.928950418885e+00
4.928942031557e+00
4.928950408438e+00
4.928942037357e+00
4.928950403087e+00
4.928942042308e+00
4.928950398041e+00
4.928942047350e+00
4.928950393001e+00
4.928942052387e+00
4.928950387966e+00
4.928942057417e+00
4.928950382938e+00
4.928942062441e+00
4.928950377916e+00
4.928942067459e+00
4.928950372900e+00
4.928942072471e+00
4.928950367890e+00
4.928942077477e+00
4.928950362886e+00
4.928942084122e+00
4.923884514564e+00
4.910157109481e+00
4.821829686851e+00
4.480773795322e-01
-4.632416545493e-03
5.006405891671e-03
-3.687611169575e-03
-3.174324073341e-05
3.123329874961e-05
-3.090430819546e-05
3.081450089584e-05
-3.070252364629e-05
3.069382031838e-05
-3.059205308541e-05
3.059268407601e-05
-3.049013743622e-05
3.049098624752e-05
-3.038856178832e-05
3.038962681778e-05
-3.028732428847e-05
3.028860462682e-05
-3.018642381116e-05
3.018791855211e-05
-3.008585923315e-05
3.008756747575e-05
-2.998562943610e-05
2.998755028304e-05
-2.988573330484e-05
2.988786586307e-05
-2.978616972759e-05
2.975186322175e-05
-3.321838714282e-04
-3.758988062803e-04
4.506307941604e-02
