<Qucs Dataset 0.0.20>
<indep time 288>
0.000000000000e+00
5.000000000000e-10
1.000000000000e-09
2.000000000000e-09
4.000000000000e-09
8.000000000000e-09
1.600000000000e-08
3.200000000000e-08
5.699220670935e-08
7.402771822827e-08
9.222902045932e-08
1.000000000000e-07
1.024191176956e-07
1.072573530867e-07
1.169338238690e-07
1.362867654337e-07
1.749926485629e-07
2.249926485629e-07
2.749926485629e-07
3.249926485629e-07
3.749926485629e-07
4.249926485629e-07
4.749926485629e-07
5.249926485629e-07
5.749926485629e-07
6.249926485629e-07
6.749926485629e-07
7.249926485629e-07
7.749926485629e-07
8.249926485629e-07
8.749926485629e-07
9.249926485629e-07
9.749926485629e-07
1.024992648563e-06
1.074992648563e-06
1.100000000000e-06
1.105000000000e-06
1.115000000000e-06
1.135000000000e-06
1.159775305058e-06
1.188576630900e-06
1.200000000000e-06
1.202945921603e-06
1.208837764808e-06
1.220621451219e-06
1.244188824040e-06
1.291323569684e-06
1.341323569684e-06
1.391323569684e-06
1.441323569684e-06
1.491323569684e-06
1.541323569684e-06
1.591323569684e-06
1.641323569684e-06
1.691323569684e-06
1.741323569684e-06
1.791323569684e-06
1.841323569684e-06
1.891323569684e-06
1.941323569684e-06
1.991323569684e-06
2.041323569684e-06
2.091323569684e-06
2.141323569684e-06
2.191323569684e-06
2.200000000000e-06
2.204199929214e-06
2.212599787643e-06
2.229399504499e-06
2.248280214957e-06
2.261493901726e-06
2.275418758917e-06
2.293840332764e-06
2.300000000000e-06
2.303131122500e-06
2.309393367500e-06
2.321917857500e-06
2.346966837500e-06
2.396966837500e-06
2.446966837500e-06
2.496966837500e-06
2.546966837500e-06
2.596966837500e-06
2.646966837500e-06
2.696966837500e-06
2.746966837500e-06
2.796966837500e-06
2.846966837500e-06
2.896966837500e-06
2.946966837500e-06
2.996966837500e-06
3.046966837500e-06
3.096966837500e-06
3.146966837500e-06
3.196966837500e-06
3.246966837500e-06
3.296966837500e-06
3.300000000000e-06
3.301871392692e-06
3.305614178077e-06
3.313099748847e-06
3.328070890385e-06
3.358013173463e-06
3.387688869298e-06
3.400000000000e-06
3.404530968033e-06
3.413592904099e-06
3.431716776231e-06
3.467964520496e-06
3.517964520496e-06
3.567964520496e-06
3.617964520496e-06
3.667964520496e-06
3.717964520496e-06
3.767964520496e-06
3.817964520496e-06
3.867964520496e-06
3.917964520496e-06
3.967964520496e-06
4.017964520496e-06
4.067964520496e-06
4.117964520496e-06
4.167964520496e-06
4.217964520496e-06
4.267964520496e-06
4.317964520496e-06
4.367964520496e-06
4.400000000000e-06
4.405000000000e-06
4.415000000000e-06
4.435000000000e-06
4.457933721644e-06
4.475488410341e-06
4.495094108276e-06
4.500000000000e-06
4.502400178662e-06
4.507200535985e-06
4.516801250632e-06
4.536002679926e-06
4.574405538513e-06
4.624405538513e-06
4.674405538513e-06
4.724405538513e-06
4.774405538513e-06
4.824405538513e-06
4.874405538513e-06
4.924405538513e-06
4.974405538513e-06
5.024405538513e-06
5.074405538513e-06
5.124405538513e-06
5.174405538513e-06
5.224405538513e-06
5.274405538513e-06
5.324405538513e-06
5.374405538513e-06
5.424405538513e-06
5.474405538513e-06
5.500000000000e-06
5.505000000000e-06
5.515000000000e-06
5.535000000000e-06
5.559775304789e-06
5.588576630319e-06
5.600000000000e-06
5.602945921583e-06
5.608837764748e-06
5.620621451078e-06
5.644188823739e-06
5.691323569061e-06
5.741323569061e-06
5.791323569061e-06
5.841323569061e-06
5.891323569061e-06
5.941323569061e-06
5.991323569061e-06
6.041323569061e-06
6.091323569061e-06
6.141323569061e-06
6.191323569061e-06
6.241323569061e-06
6.291323569061e-06
6.341323569061e-06
6.391323569061e-06
6.441323569061e-06
6.491323569061e-06
6.541323569061e-06
6.591323569061e-06
6.600000000000e-06
6.604199929406e-06
6.612599788218e-06
6.629399505841e-06
6.648280217789e-06
6.661493905303e-06
6.675418763729e-06
6.693840338999e-06
6.700000000000e-06
6.703131120323e-06
6.709393360970e-06
6.721917842263e-06
6.746966804849e-06
6.796966804849e-06
6.846966804849e-06
6.896966804849e-06
6.946966804849e-06
6.996966804849e-06
7.046966804849e-06
7.096966804849e-06
7.146966804849e-06
7.196966804849e-06
7.246966804849e-06
7.296966804849e-06
7.346966804849e-06
7.396966804849e-06
7.446966804849e-06
7.496966804849e-06
7.546966804849e-06
7.596966804849e-06
7.646966804849e-06
7.696966804849e-06
7.700000000000e-06
7.701871400299e-06
7.705614200896e-06
7.713099802091e-06
7.728071004481e-06
7.758013409260e-06
7.787688551777e-06
7.800000000000e-06
7.804531123370e-06
7.813593370111e-06
7.831717863593e-06
7.867966850556e-06
7.917966850556e-06
7.967966850556e-06
8.017966850556e-06
8.067966850556e-06
8.117966850556e-06
8.167966850556e-06
8.217966850556e-06
8.267966850556e-06
8.317966850556e-06
8.367966850556e-06
8.417966850556e-06
8.467966850556e-06
8.517966850556e-06
8.567966850556e-06
8.617966850556e-06
8.667966850556e-06
8.717966850556e-06
8.767966850556e-06
8.800000000000e-06
8.805000000000e-06
8.815000000000e-06
8.835000000000e-06
8.857933721747e-06
8.875488410421e-06
8.895094108444e-06
8.900000000000e-06
8.902400178665e-06
8.907200535994e-06
8.916801250654e-06
8.936002679972e-06
8.974405538609e-06
9.024405538609e-06
9.074405538609e-06
9.124405538609e-06
9.174405538609e-06
9.224405538609e-06
9.274405538609e-06
9.324405538609e-06
9.374405538609e-06
9.424405538609e-06
9.474405538609e-06
9.524405538609e-06
9.574405538609e-06
9.624405538609e-06
9.674405538609e-06
9.724405538609e-06
9.774405538609e-06
9.824405538609e-06
9.874405538609e-06
9.900000000000e-06
9.905000000000e-06
9.915000000000e-06
9.935000000000e-06
9.959775304789e-06
9.988576630319e-06
1.000000000000e-05
</indep>
<dep tran.v(pr1) time>
4.809998142741e+00
4.809037065099e+00
4.807645560206e+00
4.804770395408e+00
4.798684084609e+00
4.784984280484e+00
4.749019504963e+00
4.355417712316e+00
5.326242711964e-02
-1.704402687118e-03
1.614280423863e-03
-1.225619962198e-03
-3.999463887867e-06
3.996062192361e-06
-3.959199224812e-06
3.975266737824e-06
-3.949389521759e-06
3.969131212737e-06
-3.943952756662e-06
3.963914590117e-06
-3.938751878669e-06
3.958717327311e-06
-3.933557845799e-06
3.953526897943e-06
-3.928370642614e-06
3.948343293020e-06
-3.923190260108e-06
3.943166503682e-06
-3.918016689422e-06
3.937996520727e-06
-3.912849921359e-06
3.932833335420e-06
-3.907689947405e-06
3.927676938781e-06
-3.902536758138e-06
3.920017682056e-06
-1.316097601130e-04
-1.488030910566e-04
5.719685261307e-03
1.778967521084e+00
4.769592666528e+00
4.810782961759e+00
4.810003518563e+00
4.809993962630e+00
4.810003248103e+00
4.809992693573e+00
4.810003220722e+00
4.809992711119e+00
4.810003203209e+00
4.809992728276e+00
4.810003186061e+00
4.809992745393e+00
4.810003168970e+00
4.809992762453e+00
4.810003151934e+00
4.809992779458e+00
4.810003134954e+00
4.809992796407e+00
4.810003118030e+00
4.809992813301e+00
4.810003101161e+00
4.809992830139e+00
4.810003084348e+00
4.809992846923e+00
4.810003067589e+00
4.809992903120e+00
4.798044165047e+00
4.766066227111e+00
4.533748867035e+00
2.065348424972e-01
1.580335434381e-02
2.917127941000e-03
-2.000821017858e-03
2.115900817379e-03
5.711471884534e-06
-5.669675280610e-06
5.677960788834e-06
-5.648012936035e-06
5.666462765354e-06
-5.640168656896e-06
5.658926005980e-06
-5.632737849699e-06
5.651500618810e-06
-5.625316836081e-06
5.644084995666e-06
-5.617905580973e-06
5.636679122961e-06
-5.610504071590e-06
5.629282987811e-06
-5.603112295099e-06
5.621896577630e-06
-5.595730238975e-06
5.614519879344e-06
-5.588357890072e-06
5.607152880412e-06
-5.580995235747e-06
5.599795568003e-06
-5.515058165105e-06
-1.269248240122e-04
-1.332443640731e-04
-1.444225279527e-04
-9.802378129293e-05
1.172278851497e+00
4.764346796238e+00
4.811675754888e+00
4.810006563998e+00
4.809990512648e+00
4.810005377391e+00
4.809990564057e+00
4.810005348008e+00
4.809990587642e+00
4.810005323641e+00
4.809990611760e+00
4.810005299556e+00
4.809990635800e+00
4.810005275550e+00
4.809990659761e+00
4.810005251623e+00
4.809990683643e+00
4.810005227773e+00
4.809990707448e+00
4.810005204002e+00
4.809990731175e+00
4.810005180308e+00
4.809990754824e+00
4.810005156692e+00
4.809990778396e+00
4.810005126418e+00
4.795456110746e+00
4.754422907478e+00
3.641830741213e+00
4.426323219025e-02
-1.071572635952e-03
1.095055167495e-03
-7.822466296604e-04
-2.565247495101e-06
2.570466952278e-06
-2.539075830284e-06
2.557515080094e-06
-2.532725969198e-06
2.553564685387e-06
-2.529292189018e-06
2.550216510038e-06
-2.525951539418e-06
2.546878089201e-06
-2.522615283902e-06
2.543544057552e-06
-2.519283414938e-06
2.540214409543e-06
-2.515955927007e-06
2.536889139126e-06
-2.512632814138e-06
2.533568240756e-06
-2.509314070623e-06
2.530251708759e-06
-2.505999690756e-06
2.526939537084e-06
-2.502689668705e-06
2.522097248744e-06
-1.316122546558e-04
-1.488004090878e-04
5.719681359996e-03
1.778967504714e+00
4.769592658370e+00
4.810782966145e+00
4.810003518594e+00
4.809993962614e+00
4.810003248132e+00
4.809992693544e+00
4.810003220751e+00
4.809992711089e+00
4.810003203238e+00
4.809992728247e+00
4.810003186091e+00
4.809992745364e+00
4.810003168999e+00
4.809992762424e+00
4.810003151964e+00
4.809992779429e+00
4.810003134984e+00
4.809992796378e+00
4.810003118059e+00
4.809992813272e+00
4.810003101190e+00
4.809992830110e+00
4.810003084377e+00
4.809992846894e+00
4.810003067618e+00
4.809992903091e+00
4.798044164436e+00
4.766066224486e+00
4.533748809496e+00
2.065347463900e-01
1.580333708798e-02
2.917127447836e-03
-2.000820685171e-03
2.115900623833e-03
5.711475336563e-06
-5.669678678803e-06
5.677964168464e-06
-5.648016306273e-06
5.666466132838e-06
-5.640172022238e-06
5.658929368810e-06
-5.632741210582e-06
5.651503977185e-06
-5.625320192401e-06
5.644088349590e-06
-5.617908932956e-06
5.636682472552e-06
-5.610507419261e-06
5.629286333084e-06
-5.603115638424e-06
5.621899918350e-06
-5.595733577761e-06
5.614523215749e-06
-5.588361224452e-06
5.607156212405e-06
-5.580998565909e-06
5.599798895683e-06
-5.515062120546e-06
-1.269248363438e-04
-1.332443956909e-04
-1.444226272270e-04
-9.801727866887e-05
1.172359442438e+00
4.764345398875e+00
4.811675696472e+00
4.810006563612e+00
4.809990513161e+00
4.810005376881e+00
4.809990564565e+00
4.810005347500e+00
4.809990588148e+00
4.810005323136e+00
4.809990612265e+00
4.810005299052e+00
4.809990636303e+00
4.810005275048e+00
4.809990660262e+00
4.810005251122e+00
4.809990684143e+00
4.810005227274e+00
4.809990707946e+00
4.810005203504e+00
4.809990731671e+00
4.810005179812e+00
4.809990755319e+00
4.810005156198e+00
4.809990778889e+00
4.810005125925e+00
4.795456110743e+00
4.754422907497e+00
3.641830741182e+00
4.426323134981e-02
-1.071572628840e-03
1.095055160746e-03
-7.822466250056e-04
-2.565247476335e-06
2.570466933829e-06
-2.539075811833e-06
2.557515061679e-06
-2.532725950829e-06
2.553564667095e-06
-2.529292170628e-06
2.550216491761e-06
-2.525951521162e-06
2.546878070837e-06
-2.522615265559e-06
2.543544039322e-06
-2.519283396729e-06
2.540214391245e-06
-2.515955908702e-06
2.536889120934e-06
-2.512632795867e-06
2.533568222616e-06
-2.509314052386e-06
2.530251690534e-06
-2.505999672542e-06
2.526939518991e-06
-2.502689650625e-06
2.522097230511e-06
-1.316122546558e-04
-1.488004090879e-04
5.719681360002e-03
1.778967504714e+00
4.769592658370e+00
4.810782966145e+00
</dep>
<dep tran.v(input) time>
0.000000000000e+00
2.498901158659e-02
4.998894658766e-02
9.998895267286e-02
1.999889612651e-01
3.999889738652e-01
7.999889500377e-01
1.599986098769e+00
2.849593795878e+00
3.701381012023e+00
4.611436706377e+00
4.999994384591e+00
5.000000027835e+00
4.999999972354e+00
5.000000027554e+00
4.999999972494e+00
5.000000027484e+00
4.999999972535e+00
5.000000027448e+00
4.999999972571e+00
5.000000027412e+00
4.999999972607e+00
5.000000027376e+00
4.999999972643e+00
5.000000027340e+00
4.999999972679e+00
5.000000027304e+00
4.999999972714e+00
5.000000027268e+00
4.999999972750e+00
5.000000027232e+00
4.999999972786e+00
5.000000027196e+00
4.999999972822e+00
5.000000027161e+00
4.999999972875e+00
4.750009983290e+00
4.250009575283e+00
3.250010056071e+00
2.011250690382e+00
5.711802286524e-01
1.032532840836e-05
-2.103765177878e-08
2.075602647595e-08
-2.063473228842e-08
2.056019056012e-08
-2.052301912854e-08
2.048803415839e-08
-2.045310870429e-08
2.041823950373e-08
-2.038342827596e-08
2.034867318395e-08
-2.031397587221e-08
2.027933451541e-08
-2.024475074706e-08
2.021022275343e-08
-2.017575215703e-08
2.014133715573e-08
-2.010697936109e-08
2.007267698242e-08
-2.003843162055e-08
2.000424149615e-08
-1.997010819924e-08
1.993602996189e-08
-1.990200836337e-08
1.970702629950e-08
2.099854218385e-01
6.299783604966e-01
1.469962351558e+00
2.413990478974e+00
3.074691780006e+00
3.770920602524e+00
4.692014648354e+00
4.999982129064e+00
4.999999961735e+00
5.000000038058e+00
4.999999962046e+00
5.000000037904e+00
4.999999962123e+00
5.000000037852e+00
4.999999962174e+00
5.000000037801e+00
4.999999962225e+00
5.000000037749e+00
4.999999962277e+00
5.000000037698e+00
4.999999962328e+00
5.000000037647e+00
4.999999962379e+00
5.000000037596e+00
4.999999962430e+00
5.000000037545e+00
4.999999962481e+00
5.000000037494e+00
4.999999962532e+00
5.000000037443e+00
4.999999962583e+00
5.000000037003e+00
4.906440392405e+00
4.719300966102e+00
4.345022278031e+00
3.596464853887e+00
2.099356057058e+00
6.155702617346e-01
8.399071801972e-06
-2.995610888257e-08
2.965613216920e-08
-2.951959800208e-08
2.945156111248e-08
-2.940234039053e-08
2.935319522425e-08
-2.930413309931e-08
2.925514957563e-08
-2.920624797233e-08
2.915742471876e-08
-2.910868311192e-08
2.906001960414e-08
-2.901143747045e-08
2.896293318585e-08
-2.891451000359e-08
2.886616442132e-08
-2.881789967056e-08
2.876971227141e-08
-2.872160543392e-08
2.867357570045e-08
-2.862562625967e-08
2.857775367610e-08
-2.850319506717e-08
2.499889613245e-01
7.499889732541e-01
1.749984978538e+00
2.896671327153e+00
3.774414138409e+00
4.754692468716e+00
4.999992929019e+00
5.000000017611e+00
4.999999982511e+00
5.000000017429e+00
4.999999982602e+00
5.000000017384e+00
4.999999982628e+00
5.000000017360e+00
4.999999982651e+00
5.000000017337e+00
4.999999982674e+00
5.000000017314e+00
4.999999982698e+00
5.000000017291e+00
4.999999982721e+00
5.000000017268e+00
4.999999982744e+00
5.000000017245e+00
4.999999982767e+00
5.000000017222e+00
4.999999982790e+00
5.000000017199e+00
4.999999982812e+00
5.000000017176e+00
4.999999982846e+00
4.750009983306e+00
4.250009575267e+00
3.250010056087e+00
2.011250703789e+00
5.711802577062e-01
1.032531288550e-05
-2.103777486351e-08
2.075614814829e-08
-2.063485343449e-08
2.056031128477e-08
-2.052313964300e-08
2.048815447530e-08
-2.045322882401e-08
2.041835942658e-08
-2.038354800228e-08
2.034879271402e-08
-2.031409520636e-08
2.027945365398e-08
-2.024486969035e-08
2.021034150177e-08
-2.017587071077e-08
2.014145551513e-08
-2.010709752650e-08
2.007279495417e-08
-2.003854939894e-08
2.000435908149e-08
-1.997022559184e-08
1.993614716205e-08
-1.990212537145e-08
1.970714222068e-08
2.099854314243e-01
6.299783892540e-01
1.469962418658e+00
2.413990620577e+00
3.074691958885e+00
3.770920843164e+00
4.692014960097e+00
4.999982129066e+00
4.999999961735e+00
5.000000038058e+00
4.999999962046e+00
5.000000037904e+00
4.999999962123e+00
5.000000037852e+00
4.999999962174e+00
5.000000037801e+00
4.999999962225e+00
5.000000037749e+00
4.999999962277e+00
5.000000037698e+00
4.999999962328e+00
5.000000037647e+00
4.999999962379e+00
5.000000037596e+00
4.999999962430e+00
5.000000037545e+00
4.999999962481e+00
5.000000037494e+00
4.999999962532e+00
5.000000037443e+00
4.999999962583e+00
5.000000037003e+00
4.906440012086e+00
4.719299825148e+00
4.345019615804e+00
3.596459149118e+00
2.099344267325e+00
6.155861376970e-01
8.399193991810e-06
-2.995402134682e-08
2.965407082332e-08
-2.951755073919e-08
2.944952085939e-08
-2.940030351912e-08
2.935116172979e-08
-2.930210297577e-08
2.925312281772e-08
-2.920422457428e-08
2.915540467535e-08
-2.910666641741e-08
2.905800625331e-08
-2.900942745755e-08
2.896092650566e-08
-2.891250665045e-08
2.886416438999e-08
-2.881590295537e-08
2.876771886719e-08
-2.871961533500e-08
2.867158890167e-08
-2.862364275536e-08
2.857577346109e-08
-2.850121455885e-08
2.499889613245e-01
7.499889732541e-01
1.749984978538e+00
2.896671332322e+00
3.774414142440e+00
4.754692477096e+00
4.999992929019e+00
5.000000017611e+00
4.999999982511e+00
5.000000017429e+00
4.999999982602e+00
5.000000017384e+00
4.999999982628e+00
5.000000017360e+00
4.999999982651e+00
5.000000017337e+00
4.999999982674e+00
5.000000017314e+00
4.999999982698e+00
5.000000017291e+00
4.999999982721e+00
5.000000017268e+00
4.999999982744e+00
5.000000017245e+00
4.999999982767e+00
5.000000017222e+00
4.999999982790e+00
5.000000017199e+00
4.999999982812e+00
5.000000017176e+00
4.999999982846e+00
4.750009983305e+00
4.250009575267e+00
3.250010056087e+00
2.011250703789e+00
5.711802577060e-01
1.032531285796e-05
</dep>
<dep tran.v(output) time>
4.809998142741e+00
4.809037065099e+00
4.807645560206e+00
4.804770395408e+00
4.798684084609e+00
4.784984280484e+00
4.749019504963e+00
4.355417712316e+00
5.326242711964e-02
-1.704402687118e-03
1.614280423863e-03
-1.225619962198e-03
-3.999463887867e-06
3.996062192361e-06
-3.959199224812e-06
3.975266737824e-06
-3.949389521759e-06
3.969131212737e-06
-3.943952756662e-06
3.963914590117e-06
-3.938751878669e-06
3.958717327311e-06
-3.933557845799e-06
3.953526897943e-06
-3.928370642614e-06
3.948343293020e-06
-3.923190260108e-06
3.943166503682e-06
-3.918016689422e-06
3.937996520727e-06
-3.912849921359e-06
3.932833335420e-06
-3.907689947405e-06
3.927676938781e-06
-3.902536758138e-06
3.920017682056e-06
-1.316097601130e-04
-1.488030910566e-04
5.719685261307e-03
1.778967521084e+00
4.769592666528e+00
4.810782961759e+00
4.810003518563e+00
4.809993962630e+00
4.810003248103e+00
4.809992693573e+00
4.810003220722e+00
4.809992711119e+00
4.810003203209e+00
4.809992728276e+00
4.810003186061e+00
4.809992745393e+00
4.810003168970e+00
4.809992762453e+00
4.810003151934e+00
4.809992779458e+00
4.810003134954e+00
4.809992796407e+00
4.810003118030e+00
4.809992813301e+00
4.810003101161e+00
4.809992830139e+00
4.810003084348e+00
4.809992846923e+00
4.810003067589e+00
4.809992903120e+00
4.798044165047e+00
4.766066227111e+00
4.533748867035e+00
2.065348424972e-01
1.580335434381e-02
2.917127941000e-03
-2.000821017858e-03
2.115900817379e-03
5.711471884534e-06
-5.669675280610e-06
5.677960788834e-06
-5.648012936035e-06
5.666462765354e-06
-5.640168656896e-06
5.658926005980e-06
-5.632737849699e-06
5.651500618810e-06
-5.625316836081e-06
5.644084995666e-06
-5.617905580973e-06
5.636679122961e-06
-5.610504071590e-06
5.629282987811e-06
-5.603112295099e-06
5.621896577630e-06
-5.595730238975e-06
5.614519879344e-06
-5.588357890072e-06
5.607152880412e-06
-5.580995235747e-06
5.599795568003e-06
-5.515058165105e-06
-1.269248240122e-04
-1.332443640731e-04
-1.444225279527e-04
-9.802378129293e-05
1.172278851497e+00
4.764346796238e+00
4.811675754888e+00
4.810006563998e+00
4.809990512648e+00
4.810005377391e+00
4.809990564057e+00
4.810005348008e+00
4.809990587642e+00
4.810005323641e+00
4.809990611760e+00
4.810005299556e+00
4.809990635800e+00
4.810005275550e+00
4.809990659761e+00
4.810005251623e+00
4.809990683643e+00
4.810005227773e+00
4.809990707448e+00
4.810005204002e+00
4.809990731175e+00
4.810005180308e+00
4.809990754824e+00
4.810005156692e+00
4.809990778396e+00
4.810005126418e+00
4.795456110746e+00
4.754422907478e+00
3.641830741213e+00
4.426323219025e-02
-1.071572635952e-03
1.095055167495e-03
-7.822466296604e-04
-2.565247495101e-06
2.570466952278e-06
-2.539075830284e-06
2.557515080094e-06
-2.532725969198e-06
2.553564685387e-06
-2.529292189018e-06
2.550216510038e-06
-2.525951539418e-06
2.546878089201e-06
-2.522615283902e-06
2.543544057552e-06
-2.519283414938e-06
2.540214409543e-06
-2.515955927007e-06
2.536889139126e-06
-2.512632814138e-06
2.533568240756e-06
-2.509314070623e-06
2.530251708759e-06
-2.505999690756e-06
2.526939537084e-06
-2.502689668705e-06
2.522097248744e-06
-1.316122546558e-04
-1.488004090878e-04
5.719681359996e-03
1.778967504714e+00
4.769592658370e+00
4.810782966145e+00
4.810003518594e+00
4.809993962614e+00
4.810003248132e+00
4.809992693544e+00
4.810003220751e+00
4.809992711089e+00
4.810003203238e+00
