<Qucs Dataset 0.0.20>
<indep time 282>
0.000000000000e+00
5.000000000000e-10
1.000000000000e-09
2.000000000000e-09
4.000000000000e-09
8.000000000000e-09
1.600000000000e-08
3.200000000000e-08
5.316529332210e-08
6.863021764409e-08
8.505010610772e-08
1.000000000000e-07
1.024203047155e-07
1.072609141465e-07
1.169421330084e-07
1.363045707324e-07
1.750294461802e-07
2.250294461802e-07
2.750294461802e-07
3.250294461802e-07
3.750294461802e-07
4.250294461802e-07
4.750294461802e-07
5.250294461802e-07
5.750294461802e-07
6.250294461802e-07
6.750294461802e-07
7.250294461802e-07
7.750294461802e-07
8.250294461802e-07
8.750294461802e-07
9.250294461802e-07
9.750294461802e-07
1.025029446180e-06
1.075029446180e-06
1.100000000000e-06
1.105000000000e-06
1.115000000000e-06
1.135000000000e-06
1.158157973312e-06
1.180728017551e-06
1.200000000000e-06
1.202389930708e-06
1.207169792125e-06
1.216729514959e-06
1.235848960627e-06
1.274087851962e-06
1.324087851962e-06
1.374087851962e-06
1.424087851962e-06
1.474087851962e-06
1.524087851962e-06
1.574087851962e-06
1.624087851962e-06
1.674087851962e-06
1.724087851962e-06
1.774087851962e-06
1.824087851962e-06
1.874087851962e-06
1.924087851962e-06
1.974087851962e-06
2.024087851962e-06
2.074087851962e-06
2.124087851962e-06
2.174087851962e-06
2.200000000000e-06
2.205000000000e-06
2.215000000000e-06
2.235000000000e-06
2.272177963983e-06
2.297186288340e-06
2.300000000000e-06
2.302566958446e-06
2.307700875337e-06
2.316490787688e-06
2.334070612390e-06
2.369230261794e-06
2.419230261794e-06
2.469230261794e-06
2.519230261794e-06
2.569230261794e-06
2.619230261794e-06
2.669230261794e-06
2.719230261794e-06
2.769230261794e-06
2.819230261794e-06
2.869230261794e-06
2.919230261794e-06
2.969230261794e-06
3.019230261794e-06
3.069230261794e-06
3.119230261794e-06
3.169230261794e-06
3.219230261794e-06
3.269230261794e-06
3.300000000000e-06
3.305000000000e-06
3.315000000000e-06
3.335000000000e-06
3.358157561066e-06
3.380727829636e-06
3.400000000000e-06
3.402389957017e-06
3.407169871051e-06
3.416729699120e-06
3.435849355257e-06
3.474088667532e-06
3.524088667532e-06
3.574088667532e-06
3.624088667532e-06
3.674088667532e-06
3.724088667532e-06
3.774088667532e-06
3.824088667532e-06
3.874088667532e-06
3.924088667532e-06
3.974088667532e-06
4.024088667532e-06
4.074088667532e-06
4.124088667532e-06
4.174088667532e-06
4.224088667532e-06
4.274088667532e-06
4.324088667532e-06
4.374088667532e-06
4.400000000000e-06
4.405000000000e-06
4.415000000000e-06
4.435000000000e-06
4.472177965443e-06
4.497186291116e-06
4.500000000000e-06
4.502566958516e-06
4.507700875548e-06
4.516490784477e-06
4.534070602334e-06
4.569230238048e-06
4.619230238048e-06
4.669230238048e-06
4.719230238048e-06
4.769230238048e-06
4.819230238048e-06
4.869230238048e-06
4.919230238048e-06
4.969230238048e-06
5.019230238048e-06
5.069230238048e-06
5.119230238048e-06
5.169230238048e-06
5.219230238048e-06
5.269230238048e-06
5.319230238048e-06
5.369230238048e-06
5.419230238048e-06
5.469230238048e-06
5.500000000000e-06
5.505000000000e-06
5.515000000000e-06
5.535000000000e-06
5.558157561066e-06
5.580727829636e-06
5.600000000000e-06
5.602389957017e-06
5.607169871051e-06
5.616729699120e-06
5.635849355257e-06
5.674088667532e-06
5.724088667532e-06
5.774088667532e-06
5.824088667532e-06
5.874088667532e-06
5.924088667532e-06
5.974088667532e-06
6.024088667532e-06
6.074088667532e-06
6.124088667532e-06
6.174088667532e-06
6.224088667532e-06
6.274088667532e-06
6.324088667532e-06
6.374088667532e-06
6.424088667532e-06
6.474088667532e-06
6.524088667532e-06
6.574088667532e-06
6.600000000000e-06
6.605000000000e-06
6.615000000000e-06
6.635000000000e-06
6.672177965443e-06
6.697186291116e-06
6.700000000000e-06
6.702566958516e-06
6.707700875548e-06
6.716490784477e-06
6.734070602334e-06
6.769230238048e-06
6.819230238048e-06
6.869230238048e-06
6.919230238048e-06
6.969230238048e-06
7.019230238048e-06
7.069230238048e-06
7.119230238048e-06
7.169230238048e-06
7.219230238048e-06
7.269230238048e-06
7.319230238048e-06
7.369230238048e-06
7.419230238048e-06
7.469230238048e-06
7.519230238048e-06
7.569230238048e-06
7.619230238048e-06
7.669230238048e-06
7.700000000000e-06
7.705000000000e-06
7.715000000000e-06
7.735000000000e-06
7.758157561066e-06
7.780727829636e-06
7.800000000000e-06
7.802389957017e-06
7.807169871051e-06
7.816729699120e-06
7.835849355257e-06
7.874088667532e-06
7.924088667532e-06
7.974088667532e-06
8.024088667532e-06
8.074088667532e-06
8.124088667532e-06
8.174088667532e-06
8.224088667532e-06
8.274088667532e-06
8.324088667532e-06
8.374088667532e-06
8.424088667532e-06
8.474088667532e-06
8.524088667532e-06
8.574088667532e-06
8.624088667532e-06
8.674088667532e-06
8.724088667532e-06
8.774088667532e-06
8.800000000000e-06
8.805000000000e-06
8.815000000000e-06
8.835000000000e-06
8.872177965443e-06
8.897186291116e-06
8.900000000000e-06
8.902566958516e-06
8.907700875548e-06
8.916490784477e-06
8.934070602334e-06
8.969230238049e-06
9.019230238049e-06
9.069230238049e-06
9.119230238049e-06
9.169230238049e-06
9.219230238049e-06
9.269230238049e-06
9.319230238049e-06
9.369230238049e-06
9.419230238049e-06
9.469230238049e-06
9.519230238049e-06
9.569230238049e-06
9.619230238049e-06
9.669230238049e-06
9.719230238049e-06
9.769230238049e-06
9.819230238049e-06
9.869230238049e-06
9.900000000000e-06
9.905000000000e-06
9.915000000000e-06
9.935000000000e-06
9.958157561066e-06
9.980727829636e-06
1.000000000000e-05
</indep>
<dep tran.v(pr1) time>
4.809998143013e+00
4.809035224819e+00
4.807642782863e+00
4.804767319599e+00
4.798680798056e+00
4.784980107309e+00
4.749077475343e+00
4.514225016621e+00
2.620808250535e-01
-2.720387973073e-03
4.589192509013e-03
-3.220029327346e-03
-2.553653386577e-05
2.517252045417e-05
-2.491155453754e-05
2.486179397774e-05
-2.476173410169e-05
2.477024069852e-05
-2.467704567191e-05
2.469152171686e-05
-2.459793908870e-05
2.461257040325e-05
-2.451908623528e-05
2.453387182692e-05
-2.444048590355e-05
2.445542516394e-05
-2.436213728521e-05
2.437722960834e-05
-2.428403957349e-05
2.429928435585e-05
-2.420619196428e-05
2.422158860523e-05
-2.412859365671e-05
2.414414155830e-05
-2.405124385196e-05
2.403020034547e-05
-3.322687669239e-04
-3.758408040871e-04
1.418852592317e-02
2.466283536189e+00
4.728154371766e+00
4.809971528464e+00
4.809997802818e+00
4.809998210447e+00
4.809997716419e+00
4.809998205575e+00
4.809997717916e+00
4.809998204697e+00
4.809997718674e+00
4.809998203939e+00
4.809997719431e+00
4.809998203183e+00
4.809997720186e+00
4.809998202430e+00
4.809997720938e+00
4.809998201679e+00
4.809997721688e+00
4.809998200930e+00
4.809997722436e+00
4.809998200184e+00
4.809997723181e+00
4.809998199440e+00
4.809997723924e+00
4.809998198698e+00
4.809997724664e+00
4.809998197615e+00
4.795452943748e+00
4.754446958491e+00
4.275276062845e+00
3.800882522867e-03
-1.961448515878e-03
2.480544971586e-03
1.984877807497e-05
-1.949314004512e-05
1.937706841430e-05
-1.923125063493e-05
1.924066425213e-05
-1.915618195650e-05
1.917992534083e-05
-1.909349391364e-05
1.911862027600e-05
-1.903227140636e-05
1.905751140637e-05
-1.897124503035e-05
1.899659814630e-05
-1.891041406900e-05
1.893587986976e-05
-1.884977789595e-05
1.887535595245e-05
-1.878933588732e-05
1.881502577254e-05
-1.872908742133e-05
1.875488870943e-05
-1.866903187774e-05
1.869494414554e-05
-1.858902878462e-05
-3.324485293694e-04
-3.756166983100e-04
1.418825144951e-02
2.466170809068e+00
4.728152301357e+00
4.809971756565e+00
4.809997804677e+00
4.809998208602e+00
4.809997718221e+00
4.809998203781e+00
4.809997719706e+00
4.809998202910e+00
4.809997720459e+00
4.809998202157e+00
4.809997721211e+00
4.809998201407e+00
4.809997721960e+00
4.809998200659e+00
4.809997722706e+00
4.809998199913e+00
4.809997723451e+00
4.809998199170e+00
4.809997724193e+00
4.809998198429e+00
4.809997724933e+00
4.809998197690e+00
4.809997725670e+00
4.809998196954e+00
4.809997726405e+00
4.809998195880e+00
4.795452943741e+00
4.754446958557e+00
4.275276062786e+00
3.800882080940e-03
-1.961448341455e-03
2.480544798530e-03
1.984877614479e-05
-1.949313816260e-05
1.937706648264e-05
-1.923124867333e-05
1.924066228066e-05
-1.915617998854e-05
1.917992337480e-05
-1.909349195032e-05
1.911861831657e-05
-1.903226944923e-05
1.905750945293e-05
-1.897124307984e-05
1.899659619925e-05
-1.891041212445e-05
1.893587792886e-05
-1.884977595754e-05
1.887535401790e-05
-1.878933395526e-05
1.881502384391e-05
-1.872908549537e-05
1.875488678709e-05
-1.866902995808e-05
1.869494222929e-05
-1.858902691260e-05
-3.324485293618e-04
-3.756166983194e-04
1.418825144952e-02
2.466170809073e+00
4.728152301357e+00
4.809971756565e+00
4.809997804677e+00
4.809998208602e+00
4.809997718221e+00
4.809998203781e+00
4.809997719706e+00
4.809998202910e+00
4.809997720459e+00
4.809998202157e+00
4.809997721211e+00
4.809998201407e+00
4.809997721960e+00
4.809998200659e+00
4.809997722706e+00
4.809998199913e+00
4.809997723451e+00
4.809998199170e+00
4.809997724193e+00
4.809998198429e+00
4.809997724933e+00
4.809998197690e+00
4.809997725670e+00
4.809998196954e+00
4.809997726405e+00
4.809998195880e+00
4.795452943741e+00
4.754446958557e+00
4.275276062786e+00
3.800882080940e-03
-1.961448341455e-03
2.480544798530e-03
1.984877614479e-05
-1.949313816260e-05
1.937706648264e-05
-1.923124867333e-05
1.924066228066e-05
-1.915617998854e-05
1.917992337480e-05
-1.909349195032e-05
1.911861831657e-05
-1.903226944923e-05
1.905750945293e-05
-1.897124307984e-05
1.899659619925e-05
-1.891041212445e-05
1.893587792886e-05
-1.884977595754e-05
1.887535401790e-05
-1.878933395526e-05
1.881502384391e-05
-1.872908549537e-05
1.875488678709e-05
-1.866902995808e-05
1.869494222929e-05
-1.858902691282e-05
-3.324485293619e-04
-3.756166983193e-04
1.418825144953e-02
2.466170809073e+00
4.728152301357e+00
4.809971756565e+00
4.809997804677e+00
4.809998208602e+00
4.809997718221e+00
4.809998203781e+00
4.809997719706e+00
4.809998202910e+00
4.809997720459e+00
4.809998202157e+00
4.809997721211e+00
4.809998201407e+00
4.809997721960e+00
4.809998200659e+00
4.809997722706e+00
4.809998199913e+00
4.809997723451e+00
4.809998199170e+00
4.809997724193e+00
4.809998198429e+00
4.809997724933e+00
4.809998197690e+00
4.809997725670e+00
4.809998196954e+00
4.809997726405e+00
4.809998195880e+00
4.795452943741e+00
4.754446958557e+00
4.275276062786e+00
3.800882080944e-03
-1.961448341457e-03
2.480544798531e-03
1.984877614479e-05
-1.949313816238e-05
1.937706648286e-05
-1.923124867313e-05
1.924066228067e-05
-1.915617998855e-05
1.917992337481e-05
-1.909349195033e-05
1.911861831658e-05
-1.903226944924e-05
1.905750945294e-05
-1.897124307985e-05
1.899659619926e-05
-1.891041212446e-05
1.893587792887e-05
-1.884977595755e-05
1.887535401791e-05
-1.878933395527e-05
1.881502384392e-05
-1.872908549538e-05
1.875488678710e-05
-1.866902995808e-05
1.869494222930e-05
-1.858902691264e-05
-3.324485293619e-04
-3.756166983195e-04
1.418825144953e-02
2.466170809073e+00
4.728152301357e+00
4.809971756565e+00
</dep>
<dep tran.v(input) time>
0.000000000000e+00
2.498901128349e-02
4.998894643381e-02
9.998895277858e-02
1.999889611434e-01
3.999889739526e-01
7.999889511728e-01
1.599986892727e+00
2.658246200476e+00
3.431505693421e+00
4.252491349335e+00
4.999994200695e+00
5.000000073532e+00
4.999999927644e+00
5.000000071780e+00
4.999999928516e+00
5.000000071344e+00
4.999999928769e+00
5.000000071122e+00
4.999999928991e+00
5.000000070900e+00
4.999999929212e+00
5.000000070679e+00
4.999999929433e+00
5.000000070459e+00
4.999999929653e+00
5.000000070240e+00
4.999999929872e+00
5.000000070021e+00
4.999999930090e+00
5.000000069803e+00
4.999999930308e+00
5.000000069586e+00
4.999999930525e+00
5.000000069369e+00
4.999999930850e+00
4.750009980819e+00
4.250009577462e+00
3.250010101223e+00
2.092118891225e+00
9.636093445193e-01
1.190055026349e-05
1.983595270406e-09
-1.970056668417e-09
1.961348984646e-09
-1.957045221795e-09
1.954899852565e-09
-1.953262053274e-09
1.951626778896e-09
-1.949994033426e-09
1.948363808419e-09
-1.946736103673e-09
1.945110911569e-09
-1.943488231920e-09
1.941868057064e-09
-1.940250386839e-09
1.938635213614e-09
-1.937022537214e-09
1.935412350052e-09
-1.933804651916e-09
1.932199435281e-09
-1.930596699945e-09
1.928996438393e-09
-1.927398650403e-09
1.925803328509e-09
-1.922731963905e-09
2.499889613881e-01
7.499889736218e-01
1.749986481336e+00
3.608884256350e+00
4.859309005009e+00
4.999985553487e+00
4.999999946076e+00
5.000000053064e+00
4.999999947436e+00
5.000000052324e+00
4.999999947802e+00
5.000000052113e+00
4.999999947974e+00
5.000000051941e+00
4.999999948146e+00
5.000000051770e+00
4.999999948317e+00
5.000000051599e+00
4.999999948487e+00
5.000000051429e+00
4.999999948657e+00
5.000000051259e+00
4.999999948827e+00
5.000000051090e+00
4.999999948996e+00
5.000000050921e+00
4.999999949164e+00
5.000000050753e+00
4.999999949332e+00
5.000000050534e+00
4.750009981295e+00
4.250009576991e+00
3.250010101692e+00
2.092139502908e+00
9.636187410245e-01
1.189982710205e-05
1.975710684220e-09
-1.962301158208e-09
1.953657361890e-09
-1.949384975632e-09
1.947255246890e-09
-1.945629369550e-09
1.944005998627e-09
-1.942385138026e-09
1.940766779408e-09
-1.939150922570e-09
1.937537559918e-09
-1.935926691232e-09
1.934318309012e-09
-1.932712412986e-09
1.931108995694e-09
-1.929508056857e-09
1.927909589015e-09
-1.926313591914e-09
1.924720058138e-09
-1.923128987401e-09
1.921540372304e-09
-1.919954212616e-09
1.918370500956e-09
-1.915321392427e-09
2.499889613882e-01
7.499889736218e-01
1.749986481336e+00
3.608884329351e+00
4.859309143821e+00
4.999985553487e+00
4.999999946076e+00
5.000000053064e+00
4.999999947436e+00
5.000000052324e+00
4.999999947802e+00
5.000000052113e+00
4.999999947974e+00
5.000000051941e+00
4.999999948146e+00
5.000000051770e+00
4.999999948317e+00
5.000000051599e+00
4.999999948487e+00
5.000000051429e+00
4.999999948658e+00
5.000000051259e+00
4.999999948827e+00
5.000000051090e+00
4.999999948996e+00
5.000000050921e+00
4.999999949164e+00
5.000000050753e+00
4.999999949332e+00
5.000000050534e+00
4.750009981295e+00
4.250009576991e+00
3.250010101692e+00
2.092139502907e+00
9.636187410241e-01
1.189982710208e-05
1.975710684572e-09
-1.962301158641e-09
1.953657362296e-09
-1.949384976046e-09
1.947255247262e-09
-1.945629369922e-09
1.944005998990e-09
-1.942385138396e-09
1.940766779757e-09
-1.939150922902e-09
1.937537560267e-09
-1.935926691602e-09
1.934318309395e-09
-1.932712413345e-09
1.931108996053e-09
-1.929508057219e-09
1.927909589388e-09
-1.926313592284e-09
1.924720058500e-09
-1.923128987770e-09
1.921540372663e-09
-1.919954212959e-09
1.918370501295e-09
-1.915321392772e-09
2.499889613882e-01
7.499889736218e-01
1.749986481336e+00
3.608884329351e+00
4.859309143821e+00
4.999985553487e+00
4.999999946076e+00
5.000000053064e+00
4.999999947436e+00
5.000000052324e+00
4.999999947802e+00
5.000000052113e+00
4.999999947974e+00
5.000000051941e+00
4.999999948146e+00
5.000000051770e+00
4.999999948317e+00
5.000000051599e+00
4.999999948487e+00
5.000000051429e+00
4.999999948658e+00
5.000000051259e+00
4.999999948827e+00
5.000000051090e+00
4.999999948996e+00
5.000000050921e+00
4.999999949164e+00
5.000000050753e+00
4.999999949332e+00
5.000000050534e+00
4.750009981295e+00
4.250009576991e+00
3.250010101692e+00
2.092139502907e+00
9.636187410241e-01
1.189982707455e-05
1.975710682052e-09
-1.962301156093e-09
1.953657359776e-09
-1.949384973552e-09
1.947255244806e-09
-1.945629367473e-09
1.944005996571e-09
-1.942385135966e-09
1.940766777338e-09
-1.939150920482e-09
1.937537557847e-09
-1.935926689169e-09
1.934318306976e-09
-1.932712410923e-09
1.931108993634e-09
-1.929508054800e-09
1.927909586969e-09
-1.926313589861e-09
1.924720056078e-09
-1.923128985334e-09
1.921540370230e-09
-1.919954210529e-09
1.918370498859e-09
-1.915321390347e-09
2.499889613882e-01
7.499889736219e-01
1.749986481336e+00
3.608884329350e+00
4.859309143820e+00
4.999985553487e+00
4.999999946076e+00
5.000000053064e+00
4.999999947436e+00
5.000000052324e+00
4.999999947802e+00
5.000000052113e+00
4.999999947974e+00
5.000000051941e+00
4.999999948146e+00
5.000000051770e+00
4.999999948317e+00
5.000000051599e+00
4.999999948487e+00
5.000000051429e+00
4.999999948658e+00
5.000000051259e+00
4.999999948827e+00
5.000000051090e+00
4.999999948996e+00
5.000000050921e+00
4.999999949164e+00
5.000000050753e+00
4.999999949332e+00
5.000000050534e+00
4.750009981295e+00
4.250009576990e+00
3.250010101692e+00
2.092139502907e+00
9.636187410241e-01
1.189982707455e-05
</dep>
<dep tran.v(output) time>
4.809998143013e+00
4.809035224819e+00
4.807642782863e+00
4.804767319599e+00
4.798680798056e+00
4.784980107309e+00
4.749077475343e+00
4.514225016621e+00
2.620808250535e-01
-2.720387973073e-03
4.589192509013e-03
-3.220029327346e-03
-2.553653386577e-05
2.517252045417e-05
-2.491155453754e-05
2.486179397774e-05
-2.476173410169e-05
2.477024069852e-05
-2.467704567191e-05
2.469152171686e-05
-2.459793908870e-05
2.461257040325e-05
-2.451908623528e-05
2.453387182692e-05
-2.444048590355e-05
2.445542516394e-05
-2.436213728521e-05
2.437722960834e-05
-2.428403957349e-05
2.429928435585e-05
-2.420619196428e-05
2.422158860523e-05
-2.412859365671e-05
2.414414155830e-05
-2.405124385196e-05
2.403020034547e-05
-3.322687669239e-04
-3.758408040871e-04
1.418852592317e-02
2.466283536189e+00
4.728154371766e+00
4.809971528464e+00
4.809997802818e+00
4.809998210447e+00
4.809997716419e+00
4.809998205575e+00
4.809997717916e+00
4.809998204697e+00
4.809997718674e+00
4.809998203939e+00
4.809997719431e+00
4.809998203183e+00
4.809997720186e+00
4.809998202430e+00
4.809997720938e+00
4.809998201679e+00
4.809997721688e+00
4.809998200930e+00
4.809997722436e+00
4.809998200184e+00
4.809997723181e+00
4.809998199440e+00
4.809997723924e+00
4.809998198698e+00
4.809997724664e+00
4.809998197615e+00
4.795452943748e+00
4.754446958491e+00
4.275276062845e+00
3.800882522867e-03
-1.961448515878e-03
2.480544971586e-03
1.984877807497e-05
-1.949314004512e-05
1.937706841430e-05
-1.923125063493e-05
1.924066425213e-05
-1.915618195650e-05
1.917992534083e-05
-1.909349391364e-05
1.911862027600e-05
-1.903227140636e-05
1.905751140637e-05
-1.897124503035e-05
1.899659814630e-05
-1.891041406900e-05
1.893587986976e-05
-1.884977789595e-05
1.887535595245e-05
-1.878933588732e-05
1.881502577254e-05
-1.872908742133e-05
1.875488870943e-05
-1.866903187774e-05
1.869494414554e-05
-1.858902878462e-05
-3.324485293694e-04
-3.756166983100e-04
1.418825144951e-02
2.466170809068e+00
4.728152301357e+00
4.809971756565e+00
4.809997804677e+00
4.809998208602e+00
4.809997718221e+00
4.809998203781e+00
4.809997719706e+00
4.809998202910e+00
4.809997720459e+00
4.809998202157e+00
4.809997721211e+00
4.809998201407e+00
4.809997721960e+00
4.809998200659e+00
4.809997722706e+00
4.809998199913e+00
4.809997723451e+00
4.809998199170e+00
4.809997724193e+00
4.809998198429e+00
4.809997724933e+00
4.809998197690e+00
4.809997725670e+00
4.809998196954e+00
4.809997726405e+00
4.809998195880e+00
4.795452943741e+00
4.754446958557e+00
4.275276062786e+00
3.800882080940e-03
-1.961448341455e-03
2.480544798530e-03
1.984877614479e-05
-1.949313816260e-05
1.937706648264e-05
-1.923124867333e-05
1.924066228066e-05
-1.915617998854e-05
1.917992337480e-05
-1.909349195032e-05
1.911861831657e-05
-1.903226944923e-05
1.905750945293e-05
-1.897124307984e-05
1.899659619925e-05
-1.891041212445e-05
1.893587792886e-05
-1.884977595754e-05
1.887535401790e-05
-1.878933395526e-05
1.881502384391e-05
-1.872908549537e-05
1.875488678709e-05
-1.866902995808e-05
1.869494222929e-05
-1.858902691260e-05
-3.324485293618e-04
-3.756166983194e-04
1.418825144952e-02
2.466170809073e+00
4.728152301357e+00
4.809971756565e+00
4.809997804677e+00
4.809998208602e+00
4.809997718221e+00
4.809998203781e+00
4.809997719706e+00
4.809998202910e+00
4.809997720459e+00
4.809998202157e+00
4.809997721211e+00
4.809998201407e+00
4.809997721960e+00
4.809998200659e+00
4.809997722706e+00
4.809998199913e+00
4.809997723451e+00
4.809998199170e+00
4.809997724193e+00
4.809998198429e+00
4.809997724933e+00
4.809998197690e+00
4.809997725670e+00
4.809998196954e+00
4.809997726405e+00
4.809998195880e+00
4.795452943741e+00
4.754446958557e+00
4.275276062786e+00
3.800882080940e-03
