<Qucs Dataset 0.0.18>
<indep time 3>
  +0.00000000000e+00
  +5.00000000000e-04
  +1.00000000000e-03
</indep>
<dep V1.It time>
  -4.40076554289e-13
  -2.79092800574e-06
  -1.09095544511e-05
</dep>
<dep V2.It time>
  +1.53397571404e-12
  +9.02247232105e-07
  +2.52287258023e-06
</dep>
<dep V3.It time>
  +3.46843553626e-13
  +5.53025422180e-07
  +2.87209438370e-06
</dep>
<dep V4.It time>
  +4.79943564836e-13
  +4.20336706524e-07
  +3.00480296383e-06
</dep>
<dep V5.It time>
  +0.00000000000e+00
  +1.60281550971e-06
  +3.53488405929e-06
</dep>
<dep _net6.Vt time>
  +0.00000000000e+00
  +5.00000000000e+00
  +4.99999950406e+00
</dep>
<dep _net7.Vt time>
  -1.36042192919e-01
  +2.00672006402e-08
  -4.75870844063e-07
</dep>
<dep _net4.Vt time>
  +0.00000000000e+00
  +5.00000000000e+00
  +4.99999950406e+00
</dep>
<dep _net3.Vt time>
  -2.64691166018e-01
  +4.00998640164e-08
  -4.55843942767e-07
</dep>
<dep _net2.Vt time>
  +0.00000000000e+00
  +5.00000000000e+00
  +4.99999950406e+00
</dep>
<dep _net1.Vt time>
  -3.86271112547e-01
  +6.00688582392e-08
  -4.35874960565e-07
</dep>
<dep _net0.Vt time>
  +0.00000000000e+00
  +5.00000000000e+00
  +4.99999950406e+00
</dep>
<dep Out.Vt time>
  +7.22745777491e-01
  +7.99546989028e-08
  -4.15989124446e-07
</dep>
<dep _net5.Vt time>
  +1.00000000000e+00
  +1.00000000000e+00
  +1.00000000000e+00
</dep>
