<Qucs Dataset 0.0.20>
<indep time 445>
0.000000000000e+00
5.000000000000e-10
5.463772282867e-10
6.391316848602e-10
8.246405980072e-10
1.195658424301e-09
1.937694076889e-09
3.421765382065e-09
6.389907992416e-09
1.129968051789e-08
1.846585557515e-08
3.103931161587e-08
4.637582587459e-08
6.329779221784e-08
7.853697284897e-08
1.000000000000e-07
1.030478361262e-07
1.091435083787e-07
1.157273767785e-07
1.216563410625e-07
1.282514588973e-07
1.293841042082e-07
1.296786785375e-07
1.298875480336e-07
1.301533172566e-07
1.305265337396e-07
1.309549567439e-07
1.314576387528e-07
1.320384445085e-07
1.327619672477e-07
1.339966774952e-07
1.364660979901e-07
1.387935339035e-07
1.434344285193e-07
1.509755851108e-07
1.579730679854e-07
1.606412524949e-07
1.621837695362e-07
1.640977699073e-07
1.668377945576e-07
1.696841656619e-07
1.741360393357e-07
1.795853668798e-07
1.901803842509e-07
2.071453399980e-07
2.410752514921e-07
2.910752514921e-07
3.410752514921e-07
3.910752514921e-07
4.410752514921e-07
4.910752514921e-07
5.410752514921e-07
5.910752514921e-07
6.410752514921e-07
6.910752514921e-07
7.410752514921e-07
7.910752514921e-07
8.410752514921e-07
8.910752514921e-07
9.410752514921e-07
9.910752514921e-07
1.041075251492e-06
1.091075251492e-06
1.100000000000e-06
1.100217927042e-06
1.100653781125e-06
1.101525489291e-06
1.103268905624e-06
1.105867068435e-06
1.108898341070e-06
1.113166731509e-06
1.119205425855e-06
1.130983872922e-06
1.154540767055e-06
1.176733426405e-06
1.197312484494e-06
1.200000000000e-06
1.202293879219e-06
1.206881637658e-06
1.216057154535e-06
1.234408188289e-06
1.251962909387e-06
1.287072351583e-06
1.337072351583e-06
1.387072351583e-06
1.425987994777e-06
1.430798598437e-06
1.432836803474e-06
1.433994075301e-06
1.434844338202e-06
1.435807718067e-06
1.437091293846e-06
1.439658445404e-06
1.444792748520e-06
1.455061354752e-06
1.465007903845e-06
1.469686767228e-06
1.473392652274e-06
1.477037985216e-06
1.484328651099e-06
1.498909982864e-06
1.528072646395e-06
1.578072646395e-06
1.628072646395e-06
1.678072646395e-06
1.728072646395e-06
1.778072646395e-06
1.828072646395e-06
1.878072646395e-06
1.928072646395e-06
1.978072646395e-06
2.028072646395e-06
2.078072646395e-06
2.128072646395e-06
2.178072646395e-06
2.228072646395e-06
2.278072646395e-06
2.328072646395e-06
2.378072646395e-06
2.428072646395e-06
2.478072646395e-06
2.528072646395e-06
2.578072646395e-06
2.628072646395e-06
2.678072646395e-06
2.728072646395e-06
2.778072646395e-06
2.828072646395e-06
2.878072646395e-06
2.928072646395e-06
2.978072646395e-06
3.028072646395e-06
3.078072646395e-06
3.128072646395e-06
3.178072646395e-06
3.200000000000e-06
3.200316883680e-06
3.200950651040e-06
3.202218185761e-06
3.203411617721e-06
3.205798481641e-06
3.210402915937e-06
3.218330587767e-06
3.229334175638e-06
3.251341351379e-06
3.274006027774e-06
3.296591555147e-06
3.300000000000e-06
3.302079856337e-06
3.306239569011e-06
3.312441313603e-06
3.319150204526e-06
3.325366334995e-06
3.329161640758e-06
3.332862279118e-06
3.335036604515e-06
3.336184658720e-06
3.336488946040e-06
3.336647410527e-06
3.336858156694e-06
3.337095687912e-06
3.337339418434e-06
3.337567099613e-06
3.337865165563e-06
3.338266448816e-06
3.338819967501e-06
3.339566869090e-06
3.340720208416e-06
3.342785752084e-06
3.346916839420e-06
3.355179014093e-06
3.359742451749e-06
3.364158566536e-06
3.368903232750e-06
3.377998131251e-06
3.393935039886e-06
3.425002095198e-06
3.475002095198e-06
3.525002095198e-06
3.575002095198e-06
3.625002095198e-06
3.675002095198e-06
3.725002095198e-06
3.775002095198e-06
3.825002095198e-06
3.875002095198e-06
3.925002095198e-06
3.975002095198e-06
4.025002095198e-06
4.075002095198e-06
4.125002095198e-06
4.175002095198e-06
4.225002095198e-06
4.275002095198e-06
4.300000000000e-06
4.300469307467e-06
4.301407922402e-06
4.302102327075e-06
4.302822269240e-06
4.304262153569e-06
4.306578860835e-06
4.309152208613e-06
4.314298904170e-06
4.320578236419e-06
4.333136900915e-06
4.358254229909e-06
4.384131162501e-06
4.400000000000e-06
4.402914100302e-06
4.408742300907e-06
4.420398702115e-06
4.439597164660e-06
4.457515859161e-06
4.493353248163e-06
4.543353248163e-06
4.589032190334e-06
4.625331135614e-06
4.629262548723e-06
4.630865293877e-06
4.631930365238e-06
4.632859410147e-06
4.633855760153e-06
4.635707151803e-06
4.639409935103e-06
4.646815501704e-06
4.661626634906e-06
4.669873851056e-06
4.677759275517e-06
4.687751874402e-06
4.705453196270e-06
4.740855840004e-06
4.790855840004e-06
4.840855840004e-06
4.890855840004e-06
4.940855840004e-06
4.990855840004e-06
5.040855840004e-06
5.090855840004e-06
5.140855840004e-06
5.190855840004e-06
5.240855840004e-06
5.290855840004e-06
5.340855840004e-06
5.390855840004e-06
5.440855840004e-06
5.490855840004e-06
5.540855840004e-06
5.590855840004e-06
5.640855840004e-06
5.690855840004e-06
5.740855840004e-06
5.790855840004e-06
5.840855840004e-06
5.890855840004e-06
5.940855840004e-06
5.990855840004e-06
6.040855840004e-06
6.090855840004e-06
6.140855840004e-06
6.190855840004e-06
6.240855840004e-06
6.290855840004e-06
6.340855840004e-06
6.390855840004e-06
6.400000000000e-06
6.400136354499e-06
6.400409063496e-06
6.400585572781e-06
6.400826746588e-06
6.401223067461e-06
6.401627737038e-06
6.402317600619e-06
6.403190455608e-06
6.404449328542e-06
6.406683334478e-06
6.410362544538e-06
6.417720964659e-06
6.432437804899e-06
6.461871485381e-06
6.490309738684e-06
6.500000000000e-06
6.503235866509e-06
6.509707599528e-06
6.516272058770e-06
6.522356272994e-06
6.527854289523e-06
6.528794534729e-06
6.528943840182e-06
6.529050382752e-06
6.529157568573e-06
6.529371940213e-06
6.529754676309e-06
6.530200336207e-06
6.530691829818e-06
6.531249318784e-06
6.531878284486e-06
6.532657025025e-06
6.534075700606e-06
6.536321999967e-06
6.538915565314e-06
6.543780044753e-06
6.551901622201e-06
6.557625338281e-06
6.563259655464e-06
6.566469387569e-06
6.569585731224e-06
6.575818418536e-06
6.582739569331e-06
6.594668343371e-06
6.616751172370e-06
6.660916830367e-06
6.710916830367e-06
6.760916830367e-06
6.810916830367e-06
6.860916830367e-06
6.910916830367e-06
6.960916830367e-06
7.010916830367e-06
7.060916830367e-06
7.110916830367e-06
7.160916830367e-06
7.210916830367e-06
7.260916830367e-06
7.310916830367e-06
7.360916830367e-06
7.410916830367e-06
7.460916830367e-06
7.500000000000e-06
7.500689277852e-06
7.502067833555e-06
7.503712730524e-06
7.505577232804e-06
7.508830257173e-06
7.513256814791e-06
7.519263769197e-06
7.530923804750e-06
7.551276384395e-06
7.575666560198e-06
7.599464980578e-06
7.600000000000e-06
7.601070038843e-06
7.603210116530e-06
7.607490271903e-06
7.616050582648e-06
7.625331295458e-06
7.643892721077e-06
7.681015572315e-06
7.731015572315e-06
7.781015572315e-06
7.821661641239e-06
7.837231307733e-06
7.846847553199e-06
7.856288666471e-06
7.864886653705e-06
7.868571075862e-06
7.870805639772e-06
7.871706008191e-06
7.872194774878e-06
7.872778228013e-06
7.873407354576e-06
7.874355706878e-06
7.875635470638e-06
7.877641784698e-06
7.881654412817e-06
7.889679669056e-06
7.905730181534e-06
7.937831206490e-06
7.987831206490e-06
8.037831206490e-06
8.087831206490e-06
8.137831206490e-06
8.187831206490e-06
8.237831206490e-06
8.287831206490e-06
8.337831206490e-06
8.387831206490e-06
8.437831206490e-06
8.487831206490e-06
8.537831206490e-06
8.587831206490e-06
8.637831206490e-06
8.687831206490e-06
8.737831206490e-06
8.787831206490e-06
8.837831206490e-06
8.887831206490e-06
8.937831206490e-06
8.987831206490e-06
9.037831206490e-06
9.087831206490e-06
9.137831206490e-06
9.187831206490e-06
9.237831206490e-06
9.287831206490e-06
9.337831206490e-06
9.387831206490e-06
9.437831206490e-06
9.487831206490e-06
9.537831206490e-06
9.587831206490e-06
9.600000000000e-06
9.600179527006e-06
9.600538581019e-06
9.601256689043e-06
9.602238675178e-06
9.604202647448e-06
9.607422083975e-06
9.613389122662e-06
9.621251223077e-06
9.636975423907e-06
9.653084553383e-06
9.670731546214e-06
9.689940402555e-06
9.700000000000e-06
9.702430335010e-06
9.707291005030e-06
9.713850100217e-06
9.720292053222e-06
9.726727437245e-06
9.729863932837e-06
9.732247693353e-06
9.733403868334e-06
9.733742355261e-06
9.733924495712e-06
9.734162741027e-06
9.734454920331e-06
9.734811347840e-06
9.735176431821e-06
9.735638805304e-06
9.736232581416e-06
9.737158622800e-06
9.738620141159e-06
9.741543177877e-06
9.747389251312e-06
9.755441717949e-06
9.760203928474e-06
9.764817798401e-06
9.769482962789e-06
9.778813291566e-06
9.795547116294e-06
9.828289891639e-06
9.878289891639e-06
9.928289891639e-06
9.978289891639e-06
1.000000000000e-05
</indep>
<dep tran.i(pr1) time>
4.950460178402e-04
4.617455377673e-04
4.584749251848e-04
4.515841624569e-04
4.358000172641e-04
3.970744578925e-04
2.966196333379e-04
3.503710623953e-05
-5.997670654266e-04
-1.732785950820e-03
-3.372767645025e-03
-6.136644049645e-03
-9.298155545208e-03
-6.620944022307e-03
1.100341866153e-03
1.349643478339e-02
1.555977647616e-02
1.952783051934e-02
2.271958697497e-02
2.204300911328e-02
1.710192318731e-02
1.569698546707e-02
1.532217868200e-02
1.506513457094e-02
1.473381072385e-02
1.428082334103e-02
1.375944661611e-02
1.315490644743e-02
1.244279618496e-02
1.157456034286e-02
1.022504643767e-02
8.141819558186e-03
6.793972432608e-03
5.171275503459e-03
4.073564748180e-03
2.789720080777e-03
2.278584553083e-03
2.071842677104e-03
1.834031703055e-03
1.548525429165e-03
1.274194268095e-03
9.007179993481e-04
4.848287448736e-04
-1.927851575248e-04
-9.492352570029e-04
-1.486291017144e-03
-1.430117743747e-03
-1.113423133655e-03
-7.895779256033e-04
-5.537568473433e-04
-3.756137740219e-04
-2.587936063695e-04
-1.740582637271e-04
-1.192919234440e-04
-8.046624843779e-05
-5.457975182502e-05
-3.745609753195e-05
-2.464302715264e-05
-1.776071707404e-05
-1.077800567357e-05
-8.767454024436e-06
-4.339445198419e-06
-4.676396264156e-06
-2.096758979851e-06
5.141785476906e-06
2.865985330679e-05
1.066274225917e-04
3.431984304825e-04
7.949599527914e-04
1.365714003380e-03
2.154749268905e-03
3.194179801874e-03
4.964361864572e-03
7.701046730880e-03
1.198500216844e-02
2.176173610894e-02
2.308964550379e-02
2.368445545212e-02
2.463881771428e-02
2.582997887654e-02
2.739631723441e-02
2.858177862973e-02
3.054253314750e-02
3.251587664473e-02
3.178004998924e-02
3.043116796222e-02
3.020402643688e-02
3.000564897656e-02
2.991693125944e-02
2.985136003552e-02
2.978352429909e-02
2.969106130573e-02
2.952103007311e-02
2.920722993265e-02
2.870078735101e-02
2.739800632762e-02
2.644252291209e-02
2.572615407655e-02
2.504152891275e-02
2.371199012546e-02
2.120729137643e-02
1.664112704141e-02
1.087419182797e-02
7.515587123152e-03
5.326661232237e-03
3.829325374154e-03
2.803353921277e-03
2.087873010737e-03
1.598774807898e-03
1.254989556013e-03
1.022741901594e-03
8.569714040643e-04
7.475974413464e-04
6.669756083062e-04
6.162581878850e-04
5.763306454794e-04
5.535840960119e-04
5.330993557594e-04
5.236787434472e-04
5.124864343456e-04
5.094081352395e-04
5.026607076536e-04
5.025968568715e-04
4.979786474468e-04
4.993446336752e-04
4.957487669008e-04
4.977908013555e-04
4.946876383005e-04
4.970476632374e-04
4.941833559211e-04
4.966916584808e-04
4.939442369601e-04
4.965206429778e-04
4.938312820758e-04
4.964381101219e-04
4.937912138754e-04
4.782555430400e-04
4.286371795923e-04
2.569877903230e-04
3.842993722199e-05
-4.684653334279e-04
-1.524659787210e-03
-3.342287394137e-03
-5.770598605141e-03
-9.863753962497e-03
-1.468618259815e-03
1.161958835028e-02
1.344341759042e-02
1.489702964890e-02
1.768268190924e-02
2.155830969589e-02
2.251358873747e-02
2.012207125137e-02
1.608721967621e-02
1.092444575188e-02
9.372174823068e-03
8.201129158670e-03
8.031528691488e-03
7.925324914940e-03
7.804279012983e-03
7.653236889979e-03
7.517285487994e-03
7.379979339666e-03
7.222901003381e-03
7.006019119308e-03
6.743358749864e-03
6.407346058079e-03
5.974055658721e-03
5.347173224407e-03
4.553244678328e-03
3.526011291313e-03
2.369525649383e-03
1.800513163578e-03
1.356744801821e-03
5.845994669223e-04
-3.911912939131e-04
-1.334056932015e-03
-1.488590842672e-03
-1.239699302734e-03
-8.685770242538e-04
-6.362424098978e-04
-4.114851624062e-04
-3.043121873671e-04
-1.854266755650e-04
-1.459176252401e-04
-8.034518564444e-05
-7.215194670181e-05
-3.218053038395e-05
-3.788855330738e-05
-1.022989528426e-05
-2.193166220867e-05
-2.816084112012e-07
-1.446101220576e-05
4.190945573725e-06
-1.143171007671e-05
2.164470655550e-05
9.683822395648e-05
1.781557615357e-04
2.791347001773e-04
5.113957230596e-04
9.303240418168e-04
1.414624578503e-03
2.356446177354e-03
3.416960331645e-03
5.254674473644e-03
8.053322797547e-03
1.535500889794e-02
2.276328918030e-02
2.362563467098e-02
2.488089788711e-02
2.624168388280e-02
2.776403050506e-02
2.892166651415e-02
3.083723235763e-02
3.261701067588e-02
3.172936180990e-02
3.048110218392e-02
3.032376023982e-02
3.017138353977e-02
3.008620331840e-02
3.001235305075e-02
2.993915644938e-02
2.980293635253e-02
2.955281323970e-02
2.911139088597e-02
2.821663671760e-02
2.647732966387e-02
2.500241027201e-02
2.319016027560e-02
2.021996876417e-02
1.490673993485e-02
9.885293254129e-03
6.908590475286e-03
4.892000470521e-03
3.550680294806e-03
2.592968202275e-03
1.957728363221e-03
1.495357376361e-03
1.195215792853e-03
9.711269726704e-04
8.304149668714e-04
7.211689071974e-04
6.559347697399e-04
6.021527684385e-04
5.724408244455e-04
5.455782620419e-04
5.324353831836e-04
5.187418041381e-04
5.132257943201e-04
5.060506379353e-04
5.039708465317e-04
5.000767911737e-04
4.994892621478e-04
4.972852203705e-04
4.973027060237e-04
4.959928623011e-04
4.962256507172e-04
4.954083793192e-04
4.956859169653e-04
4.951517895142e-04
4.954095127583e-04
4.950456649690e-04
4.952637594908e-04
4.950069974128e-04
4.951563581140e-04
4.900736518690e-04
4.762275852731e-04
4.638546322876e-04
4.428502102491e-04
3.998659855010e-04
3.464709375733e-04
2.387288100674e-04
7.996991122654e-05
-1.763586450066e-04
-6.702003932912e-04
-1.517259225105e-03
-3.204065296584e-03
-6.434633890314e-03
-7.204016242838e-03
7.914851621509e-03
1.387743607042e-02
1.593633763089e-02
2.005754472118e-02
2.269386507775e-02
2.163251447885e-02
1.727170625575e-02
1.602830425315e-02
1.584159591630e-02
1.570663658159e-02
1.557323933031e-02
1.530441363283e-02
1.483083664055e-02
1.428430330277e-02
1.369085082370e-02
1.301733007472e-02
1.225205102830e-02
1.132555257166e-02
9.837092504021e-03
8.024669620792e-03
6.588343215055e-03
5.018486353535e-03
3.980733514668e-03
2.746536633786e-03
1.856216563962e-03
1.547857592833e-03
1.249741476415e-03
7.451506576477e-04
2.446274914166e-04
-4.515850044749e-04
-1.188805907485e-03
-1.525809350172e-03
-1.319525629324e-03
-9.674940909905e-04
-6.917842705946e-04
-4.689520294213e-04
-3.276913373675e-04
-2.168274739744e-04
-1.527624595256e-04
-9.887114007615e-05
-7.140069996989e-05
-4.455467084381e-05
-3.376782263904e-05
-1.964927466445e-05
-1.635470796731e-05
-8.260767563460e-06
-8.280085982637e-06
-3.070344303566e-06
-4.786508511913e-06
4.145136246535e-05
1.752990032805e-04
4.178269046266e-04
7.448223797218e-04
1.352502651149e-03
2.170309317654e-03
3.203213628396e-03
4.955575920933e-03
7.369861608912e-03
1.151219639084e-02
2.273335243122e-02
2.305768035833e-02
2.347629352288e-02
2.412258588461e-02
2.486654096806e-02
2.585165029959e-02
2.667610567971e-02
2.805236018682e-02
3.024499294250e-02
3.232713416737e-02
3.191258582751e-02
3.065747789598e-02
2.966088959044e-02
2.894261485575e-02
2.864917813400e-02
2.718094182057e-02
2.649326913812e-02
2.604356930212e-02
2.587108021805e-02
2.577935399622e-02
2.566805533201e-02
2.554806571058e-02
2.537012341245e-02
2.512934213782e-02
2.475917527851e-02
2.402846062501e-02
2.261820126828e-02
1.994239591811e-02
1.513092183133e-02
1.000189255254e-02
6.991433695621e-03
4.941155101109e-03
3.590700105724e-03
2.615148122946e-03
1.977968078791e-03
1.504993294551e-03
1.205838182544e-03
9.748398144970e-04
8.363159036435e-04
7.221495716349e-04
6.594910119728e-04
6.019162136268e-04
5.748112076906e-04
5.448167022004e-04
5.341931960469e-04
5.177697247271e-04
5.146574268359e-04
5.050070102728e-04
5.052223515997e-04
4.990198791027e-04
5.006371544374e-04
4.962369869280e-04
4.983884466839e-04
4.949624426286e-04
4.972710414550e-04
4.943928569213e-04
4.967054814833e-04
4.941490237442e-04
4.964120269304e-04
4.940529624526e-04
4.962548121793e-04
4.940218729790e-04
4.961429099447e-04
4.877217339821e-04
4.669549114247e-04
3.961674223380e-04
2.531221821224e-04
-1.204610588848e-04
-8.357849431492e-04
-2.215005779028e-03
-3.997941638266e-03
-7.388407246956e-03
-9.695894678543e-03
-3.131720086875e-03
7.589596999619e-03
1.333220872123e-02
1.506110140988e-02
1.831608252059e-02
2.233290121949e-02
2.247906182949e-02
1.871451347724e-02
1.521374068705e-02
1.197445646413e-02
1.084919555901e-02
1.045661579652e-02
1.027712058457e-02
1.002676256290e-02
9.757194362372e-03
9.422778006237e-03
9.119447227668e-03
8.736865257554e-03
8.305505136754e-03
7.682750537650e-03
6.885974902576e-03
5.709788662507e-03
4.466085559289e-03
3.466710332776e-03
2.300893675928e-03
1.732769663854e-03
1.307947517046e-03
5.272675239257e-04
-4.705922056974e-04
-1.384361399454e-03
-1.472735666505e-03
-1.219694009847e-03
-8.465540020103e-04
-7.602566295251e-04
</dep>
<dep tran.v(input) time>
2.362385412803e-08
8.066563695446e-03
8.828311898850e-03
1.037791500714e-02
1.362700268671e-02
2.066364291116e-02
3.648812539002e-02
7.289782186036e-02
1.553697088856e-01
3.025296818400e-01
5.268301043180e-01
9.409907034552e-01
1.477628401425e+00
1.764298795554e+00
1.837816437070e+00
2.119958311295e+00
2.124640301218e+00
2.142624236955e+00
2.192308810911e+00
2.313831054317e+00
2.628815043677e+00
2.726473628556e+00
2.752448744827e+00
2.770285435018e+00
2.793261364893e+00
2.824708943437e+00
2.860898648438e+00
2.902883345701e+00
2.952301507000e+00
3.012646472262e+00
3.106962055220e+00
3.254608592523e+00
3.352142794972e+00
3.472592444618e+00
3.558124060985e+00
3.665976042144e+00
3.713058765833e+00
3.734367929644e+00
3.759448420183e+00
3.791244319199e+00
3.822387783695e+00
3.866614090655e+00
3.917120254397e+00
4.004920525651e+00
4.124001459062e+00
4.309000029589e+00
4.520203823350e+00
4.671877758534e+00
4.776015231106e+00
4.848067240722e+00
4.896618343196e+00
4.929996051570e+00
4.952405317622e+00
4.967762999880e+00
4.978116263990e+00
4.985138351283e+00
4.989959674501e+00
4.993126953423e+00
4.995416392428e+00
4.996797949243e+00
4.997931802282e+00
4.998483749174e+00
4.999092244916e+00
4.998996389414e+00
4.996038046967e+00
4.989508039042e+00
4.974303662669e+00
4.937963703424e+00
4.875309205982e+00
4.795972384891e+00
4.678946478149e+00
4.506476294127e+00
4.150870304515e+00
3.375014645593e+00
2.494070157228e+00
1.468517420190e+00
1.344804190685e+00
1.296099779874e+00
1.214751027765e+00
1.103221277083e+00
9.439446563527e-01
8.199977561050e-01
6.165992427252e-01
4.119962739954e-01
4.531202614213e-01
5.466400386072e-01
5.603316780900e-01
5.737306624532e-01
5.797354832326e-01
5.841567736767e-01
5.887327097720e-01
5.949516111227e-01
6.063809673177e-01
6.274131627616e-01
6.611070309460e-01
6.982118321477e-01
7.139905431941e-01
7.219607656274e-01
7.275297933028e-01
7.338939151007e-01
7.323565838501e-01
7.009155981348e-01
5.711066060116e-01
4.058540043860e-01
2.829232328314e-01
1.964074344190e-01
1.356936505946e-01
9.400242340057e-02
6.477101403998e-02
4.492966880369e-02
3.086329241721e-02
2.148893490707e-02
1.467544179410e-02
1.029954678359e-02
6.952699610121e-03
4.959922521319e-03
3.269448702775e-03
2.412103483475e-03
1.513239035223e-03
1.196319815558e-03
6.760792144063e-04
6.160464789815e-04
2.771520714117e-04
3.389911004265e-04
8.714817664863e-05
2.066309442412e-04
-3.278266665547e-06
1.433374707531e-04
-4.626081057890e-05
1.130250144415e-04
-6.665065259091e-05
9.847187861702e-05
-7.629058195729e-05
9.145633902821e-05
-8.082186432946e-05
8.865999898738e-05
4.796854531929e-03
1.557316305948e-02
4.261361129639e-02
7.252108538021e-02
1.384053380008e-01
2.751138581911e-01
5.224949986148e-01
8.833887498294e-01
1.634935929169e+00
1.812322369452e+00
2.048194292468e+00
2.123130352716e+00
2.123244059842e+00
2.131102481073e+00
2.157499060470e+00
2.258969512457e+00
